# HZ S RI R 50
0.00000000000e+000 +0.00000000000e+000 +0.00000000000e+000 +1.00000000000e+000 +0.00000000000e+000 +1.00000000000e+000 +0.00000000000e+000 +0.00000000000e+000 +0.00000000000e+000
1.87500000000e+007 +2.09066910895e-006 +4.51830176570e-005 +9.99842311466e-001 -3.54390716340e-003 +9.99842311466e-001 -3.54390716340e-003 +2.09066910872e-006 +4.51830176570e-005
3.75000000000e+007 +3.54763167731e-006 +9.03473230330e-005 +9.99746857193e-001 -7.08723485259e-003 +9.99746857193e-001 -7.08723485259e-003 +3.54763167687e-006 +9.03473230330e-005
5.62500000000e+007 +5.16754333968e-006 +1.35492656784e-004 +9.99651151114e-001 -1.06300736758e-002 +9.99651151114e-001 -1.06300736758e-002 +5.16754333968e-006 +1.35492656784e-004
7.50000000000e+007 +7.02590372814e-006 +1.80616921815e-004 +9.99549259372e-001 -1.41724291236e-002 +9.99549259372e-001 -1.41724291236e-002 +7.02590372814e-006 +1.80616921815e-004
9.37500000000e+007 +9.15182002448e-006 +2.25717675498e-004 +9.99438884695e-001 -1.77142865064e-002 +9.99438884695e-001 -1.77142865064e-002 +9.15182002470e-006 +2.25717675498e-004
1.12500000000e+008 +1.15600965038e-005 +2.70792355296e-004 +9.99318849879e-001 -2.12556220537e-002 +9.99318849879e-001 -2.12556220537e-002 +1.15600965038e-005 +2.70792355296e-004
1.31250000000e+008 +1.42594123838e-005 +3.15838352143e-004 +9.99188456481e-001 -2.47964069374e-002 +9.99188456481e-001 -2.47964069374e-002 +1.42594123840e-005 +3.15838352143e-004
1.50000000000e+008 +1.72553134972e-005 +3.60853041021e-004 +9.99047250230e-001 -2.83366091538e-002 +9.99047250230e-001 -2.83366091538e-002 +1.72553134972e-005 +3.60853041021e-004
1.68750000000e+008 +2.05515474645e-005 +4.05833795516e-004 +9.98894916335e-001 -3.18761945438e-002 +9.98894916335e-001 -3.18761945438e-002 +2.05515474649e-005 +4.05833795516e-004
1.87500000000e+008 +2.41507420848e-005 +4.50777995336e-004 +9.98731226315e-001 -3.54151274015e-002 +9.98731226315e-001 -3.54151274015e-002 +2.41507420851e-005 +4.50777995336e-004
2.06250000000e+008 +2.80547833780e-005 +4.95683030387e-004 +9.98556008368e-001 -3.89533708645e-002 +9.98556008368e-001 -3.89533708645e-002 +2.80547833780e-005 +4.95683030387e-004
2.25000000000e+008 +3.22650414422e-005 +5.40546303031e-004 +9.98369129688e-001 -4.24908871771e-002 +9.98369129688e-001 -4.24908871771e-002 +3.22650414422e-005 +5.40546303031e-004
2.43750000000e+008 +3.67825129444e-005 +5.85365229330e-004 +9.98170485305e-001 -4.60276378759e-002 +9.98170485305e-001 -4.60276378759e-002 +3.67825129446e-005 +5.85365229330e-004
2.62500000000e+008 +4.16079150571e-005 +6.30137239720e-004 +9.97959990743e-001 -4.95635839251e-002 +9.97959990743e-001 -4.95635839251e-002 +4.16079150574e-005 +6.30137239720e-004
2.81250000000e+008 +4.67417496752e-005 +6.74859779327e-004 +9.97737577000e-001 -5.30986858180e-002 +9.97737577000e-001 -5.30986858180e-002 +4.67417496750e-005 +6.74859779327e-004
3.00000000000e+008 +5.21843486754e-005 +7.19530308089e-004 +9.97503187021e-001 -5.66329036539e-002 +9.97503187021e-001 -5.66329036539e-002 +5.21843486758e-005 +7.19530308089e-004
3.18750000000e+008 +5.79359066575e-005 +7.64146300739e-004 +9.97256773146e-001 -6.01661971999e-002 +9.97256773146e-001 -6.01661971999e-002 +5.79359066575e-005 +7.64146300739e-004
3.37500000000e+008 +6.39965051670e-005 +8.08705246728e-004 +9.96998295227e-001 -6.36985259388e-002 +9.96998295227e-001 -6.36985259388e-002 +6.39965051665e-005 +8.08705246728e-004
3.56250000000e+008 +7.03661309778e-005 +8.53204650091e-004 +9.96727719212e-001 -6.72298491081e-002 +9.96727719212e-001 -6.72298491081e-002 +7.03661309782e-005 +8.53204650091e-004
3.75000000000e+008 +7.70446901319e-005 +8.97642029303e-004 +9.96445016061e-001 -7.07601257328e-002 +9.96445016061e-001 -7.07601257328e-002 +7.70446901321e-005 +8.97642029302e-004
3.93750000000e+008 +8.40320188868e-005 +9.42014917114e-004 +9.96150160901e-001 -7.42893146513e-002 +9.96150160901e-001 -7.42893146513e-002 +8.40320188873e-005 +9.42014917114e-004
4.12500000000e+008 +9.13278923798e-005 +9.86320860391e-004 +9.95843132361e-001 -7.78173745384e-002 +9.95843132361e-001 -7.78173745384e-002 +9.13278923802e-005 +9.86320860391e-004
4.31250000000e+008 +9.89320315659e-005 +1.03055741995e-003 +9.95523912048e-001 -8.13442639238e-002 +9.95523912048e-001 -8.13442639238e-002 +9.89320315663e-005 +1.03055741995e-003
4.50000000000e+008 +1.06844108843e-004 +1.07472217041e-003 +9.95192484111e-001 -8.48699412084e-002 +9.95192484111e-001 -8.48699412084e-002 +1.06844108843e-004 +1.07472217041e-003
4.68750000000e+008 +1.15063752660e-004 +1.11881270004e-003 +9.94848834901e-001 -8.83943646785e-002 +9.94848834901e-001 -8.83943646785e-002 +1.15063752660e-004 +1.11881270004e-003
4.87500000000e+008 +1.23590551323e-004 +1.16282661061e-003 +9.94492952684e-001 -9.19174925176e-002 +9.94492952684e-001 -9.19174925176e-002 +1.23590551323e-004 +1.16282661061e-003
5.06250000000e+008 +1.32424056187e-004 +1.20676151730e-003 +9.94124827403e-001 -9.54392828171e-002 +9.94124827403e-001 -9.54392828171e-002 +1.32424056187e-004 +1.20676151730e-003
5.25000000000e+008 +1.41563784326e-004 +1.25061504854e-003 +9.93744450481e-001 -9.89596935857e-002 +9.93744450481e-001 -9.89596935857e-002 +1.41563784327e-004 +1.25061504854e-003
5.43750000000e+008 +1.51009220815e-004 +1.29438484592e-003 +9.93351814656e-001 -1.02478682757e-001 +9.93351814656e-001 -1.02478682757e-001 +1.51009220814e-004 +1.29438484592e-003
5.62500000000e+008 +1.60759820668e-004 +1.33806856406e-003 +9.92946913841e-001 -1.05996208199e-001 +9.92946913841e-001 -1.05996208199e-001 +1.60759820668e-004 +1.33806856406e-003
5.81250000000e+008 +1.70815010524e-004 +1.38166387058e-003 +9.92529743005e-001 -1.09512227718e-001 +9.92529743005e-001 -1.09512227718e-001 +1.70815010523e-004 +1.38166387058e-003
6.00000000000e+008 +1.81174190090e-004 +1.42516844593e-003 +9.92100298069e-001 -1.13026699065e-001 +9.92100298069e-001 -1.13026699065e-001 +1.81174190090e-004 +1.42516844593e-003
6.18750000000e+008 +1.91836733420e-004 +1.46857998340e-003 +9.91658575820e-001 -1.16539579943e-001 +9.91658575820e-001 -1.16539579943e-001 +1.91836733420e-004 +1.46857998340e-003
6.37500000000e+008 +2.02801990022e-004 +1.51189618897e-003 +9.91204573836e-001 -1.20050828009e-001 +9.91204573836e-001 -1.20050828009e-001 +2.02801990022e-004 +1.51189618897e-003
6.56250000000e+008 +2.14069285847e-004 +1.55511478130e-003 +9.90738290417e-001 -1.23560400883e-001 +9.90738290417e-001 -1.23560400883e-001 +2.14069285847e-004 +1.55511478130e-003
6.75000000000e+008 +2.25637924165e-004 +1.59823349166e-003 +9.90259724531e-001 -1.27068256145e-001 +9.90259724531e-001 -1.27068256145e-001 +2.25637924165e-004 +1.59823349166e-003
6.93750000000e+008 +2.37507186345e-004 +1.64125006386e-003 +9.89768875761e-001 -1.30574351345e-001 +9.89768875761e-001 -1.30574351345e-001 +2.37507186346e-004 +1.64125006386e-003
7.12500000000e+008 +2.49676332559e-004 +1.68416225423e-003 +9.89265744263e-001 -1.34078644005e-001 +9.89265744263e-001 -1.34078644005e-001 +2.49676332559e-004 +1.68416225423e-003
7.31250000000e+008 +2.62144602417e-004 +1.72696783157e-003 +9.88750330725e-001 -1.37581091620e-001 +9.88750330725e-001 -1.37581091620e-001 +2.62144602416e-004 +1.72696783157e-003
7.50000000000e+008 +2.74911215540e-004 +1.76966457709e-003 +9.88222636333e-001 -1.41081651662e-001 +9.88222636333e-001 -1.41081651662e-001 +2.74911215540e-004 +1.76966457709e-003
7.68750000000e+008 +2.87975372090e-004 +1.81225028442e-003 +9.87682662744e-001 -1.44580281585e-001 +9.87682662744e-001 -1.44580281585e-001 +2.87975372090e-004 +1.81225028442e-003
7.87500000000e+008 +3.01336253246e-004 +1.85472275954e-003 +9.87130412052e-001 -1.48076938822e-001 +9.87130412052e-001 -1.48076938822e-001 +3.01336253246e-004 +1.85472275954e-003
8.06250000000e+008 +3.14993021647e-004 +1.89707982081e-003 +9.86565886769e-001 -1.51571580796e-001 +9.86565886769e-001 -1.51571580796e-001 +3.14993021647e-004 +1.89707982081e-003
8.25000000000e+008 +3.28944821802e-004 +1.93931929889e-003 +9.85989089802e-001 -1.55064164914e-001 +9.85989089802e-001 -1.55064164914e-001 +3.28944821802e-004 +1.93931929889e-003
8.43750000000e+008 +3.43190780467e-004 +1.98143903675e-003 +9.85400024432e-001 -1.58554648572e-001 +9.85400024432e-001 -1.58554648572e-001 +3.43190780467e-004 +1.98143903675e-003
8.62500000000e+008 +3.57730006999e-004 +2.02343688966e-003 +9.84798694299e-001 -1.62042989160e-001 +9.84798694299e-001 -1.62042989160e-001 +3.57730006999e-004 +2.02343688966e-003
8.81250000000e+008 +3.72561593684e-004 +2.06531072518e-003 +9.84185103381e-001 -1.65529144060e-001 +9.84185103381e-001 -1.65529144060e-001 +3.72561593684e-004 +2.06531072518e-003
9.00000000000e+008 +3.87684616047e-004 +2.10705842314e-003 +9.83559255986e-001 -1.69013070649e-001 +9.83559255986e-001 -1.69013070649e-001 +3.87684616047e-004 +2.10705842314e-003
9.18750000000e+008 +4.03098133142e-004 +2.14867787565e-003 +9.82921156735e-001 -1.72494726302e-001 +9.82921156735e-001 -1.72494726302e-001 +4.03098133142e-004 +2.14867787565e-003
9.37500000000e+008 +4.18801187828e-004 +2.19016698705e-003 +9.82270810552e-001 -1.75974068391e-001 +9.82270810552e-001 -1.75974068391e-001 +4.18801187828e-004 +2.19016698705e-003
9.56250000000e+008 +4.34792807027e-004 +2.23152367398e-003 +9.81608222651e-001 -1.79451054289e-001 +9.81608222651e-001 -1.79451054289e-001 +4.34792807027e-004 +2.23152367398e-003
9.75000000000e+008 +4.51072001974e-004 +2.27274586533e-003 +9.80933398529e-001 -1.82925641370e-001 +9.80933398529e-001 -1.82925641370e-001 +4.51072001974e-004 +2.27274586533e-003
9.93750000000e+008 +4.67637768450e-004 +2.31383150225e-003 +9.80246343953e-001 -1.86397787014e-001 +9.80246343953e-001 -1.86397787014e-001 +4.67637768451e-004 +2.31383150225e-003
1.01250000000e+009 +4.84489087008e-004 +2.35477853815e-003 +9.79547064958e-001 -1.89867448601e-001 +9.79547064958e-001 -1.89867448601e-001 +4.84489087008e-004 +2.35477853815e-003
1.03125000000e+009 +5.01624923187e-004 +2.39558493874e-003 +9.78835567833e-001 -1.93334583520e-001 +9.78835567833e-001 -1.93334583520e-001 +5.01624923187e-004 +2.39558493874e-003
1.05000000000e+009 +5.19044227720e-004 +2.43624868198e-003 +9.78111859117e-001 -1.96799149167e-001 +9.78111859117e-001 -1.96799149167e-001 +5.19044227720e-004 +2.43624868198e-003
1.06875000000e+009 +5.36745936735e-004 +2.47676775812e-003 +9.77375945595e-001 -2.00261102943e-001 +9.77375945595e-001 -2.00261102943e-001 +5.36745936735e-004 +2.47676775812e-003
1.08750000000e+009 +5.54728971943e-004 +2.51714016973e-003 +9.76627834288e-001 -2.03720402264e-001 +9.76627834288e-001 -2.03720402264e-001 +5.54728971942e-004 +2.51714016973e-003
1.10625000000e+009 +5.72992240824e-004 +2.55736393164e-003 +9.75867532448e-001 -2.07177004551e-001 +9.75867532448e-001 -2.07177004551e-001 +5.72992240824e-004 +2.55736393164e-003
1.12500000000e+009 +5.91534636810e-004 +2.59743707104e-003 +9.75095047555e-001 -2.10630867242e-001 +9.75095047555e-001 -2.10630867242e-001 +5.91534636810e-004 +2.59743707104e-003
1.14375000000e+009 +6.10355039457e-004 +2.63735762742e-003 +9.74310387314e-001 -2.14081947784e-001 +9.74310387314e-001 -2.14081947784e-001 +6.10355039457e-004 +2.63735762742e-003
1.16250000000e+009 +6.29452314612e-004 +2.67712365263e-003 +9.73513559645e-001 -2.17530203641e-001 +9.73513559645e-001 -2.17530203641e-001 +6.29452314612e-004 +2.67712365263e-003
1.18125000000e+009 +6.48825314581e-004 +2.71673321084e-003 +9.72704572684e-001 -2.20975592290e-001 +9.72704572684e-001 -2.20975592290e-001 +6.48825314581e-004 +2.71673321084e-003
1.20000000000e+009 +6.68472878290e-004 +2.75618437862e-003 +9.71883434777e-001 -2.24418071224e-001 +9.71883434777e-001 -2.24418071224e-001 +6.68472878290e-004 +2.75618437862e-003
1.21875000000e+009 +6.88393831437e-004 +2.79547524492e-003 +9.71050154478e-001 -2.27857597955e-001 +9.71050154478e-001 -2.27857597955e-001 +6.88393831437e-004 +2.79547524492e-003
1.23750000000e+009 +7.08586986650e-004 +2.83460391107e-003 +9.70204740544e-001 -2.31294130012e-001 +9.70204740544e-001 -2.31294130012e-001 +7.08586986650e-004 +2.83460391107e-003
1.25625000000e+009 +7.29051143636e-004 +2.87356849082e-003 +9.69347201933e-001 -2.34727624941e-001 +9.69347201933e-001 -2.34727624941e-001 +7.29051143636e-004 +2.87356849082e-003
1.27500000000e+009 +7.49785089325e-004 +2.91236711035e-003 +9.68477547802e-001 -2.38158040312e-001 +9.68477547802e-001 -2.38158040312e-001 +7.49785089325e-004 +2.91236711035e-003
1.29375000000e+009 +7.70787598017e-004 +2.95099790830e-003 +9.67595787502e-001 -2.41585333712e-001 +9.67595787502e-001 -2.41585333712e-001 +7.70787598017e-004 +2.95099790830e-003
1.31250000000e+009 +7.92057431523e-004 +2.98945903576e-003 +9.66701930579e-001 -2.45009462753e-001 +9.66701930579e-001 -2.45009462753e-001 +7.92057431524e-004 +2.98945903576e-003
1.33125000000e+009 +8.13593339304e-004 +3.02774865631e-003 +9.65795986769e-001 -2.48430385065e-001 +9.65795986769e-001 -2.48430385065e-001 +8.13593339303e-004 +3.02774865631e-003
1.35000000000e+009 +8.35394058604e-004 +3.06586494601e-003 +9.64877965995e-001 -2.51848058307e-001 +9.64877965995e-001 -2.51848058307e-001 +8.35394058604e-004 +3.06586494601e-003
1.36875000000e+009 +8.57458314591e-004 +3.10380609346e-003 +9.63947878369e-001 -2.55262440159e-001 +9.63947878369e-001 -2.55262440159e-001 +8.57458314592e-004 +3.10380609346e-003
1.38750000000e+009 +8.79784820487e-004 +3.14157029980e-003 +9.63005734186e-001 -2.58673488325e-001 +9.63005734186e-001 -2.58673488325e-001 +8.79784820487e-004 +3.14157029980e-003
1.40625000000e+009 +9.02372277696e-004 +3.17915577870e-003 +9.62051543926e-001 -2.62081160538e-001 +9.62051543926e-001 -2.62081160538e-001 +9.02372277696e-004 +3.17915577870e-003
1.42500000000e+009 +9.25219375936e-004 +3.21656075643e-003 +9.61085318247e-001 -2.65485414556e-001 +9.61085318247e-001 -2.65485414556e-001 +9.25219375937e-004 +3.21656075643e-003
1.44375000000e+009 +9.48324793368e-004 +3.25378347183e-003 +9.60107067989e-001 -2.68886208165e-001 +9.60107067989e-001 -2.68886208165e-001 +9.48324793368e-004 +3.25378347183e-003
1.46250000000e+009 +9.71687196717e-004 +3.29082217636e-003 +9.59116804168e-001 -2.72283499179e-001 +9.59116804168e-001 -2.72283499179e-001 +9.71687196717e-004 +3.29082217636e-003
1.48125000000e+009 +9.95305241400e-004 +3.32767513412e-003 +9.58114537980e-001 -2.75677245441e-001 +9.58114537980e-001 -2.75677245441e-001 +9.95305241401e-004 +3.32767513412e-003
1.50000000000e+009 +1.01917757165e-003 +3.36434062185e-003 +9.57100280793e-001 -2.79067404825e-001 +9.57100280793e-001 -2.79067404825e-001 +1.01917757165e-003 +3.36434062185e-003
1.51875000000e+009 +1.04330282064e-003 +3.40081692896e-003 +9.56074044151e-001 -2.82453935233e-001 +9.56074044151e-001 -2.82453935233e-001 +1.04330282064e-003 +3.40081692896e-003
1.53750000000e+009 +1.06767961059e-003 +3.43710235755e-003 +9.55035839768e-001 -2.85836794600e-001 +9.55035839768e-001 -2.85836794600e-001 +1.06767961059e-003 +3.43710235755e-003
1.55625000000e+009 +1.09230655290e-003 +3.47319522242e-003 +9.53985679534e-001 -2.89215940895e-001 +9.53985679534e-001 -2.89215940895e-001 +1.09230655290e-003 +3.47319522242e-003
1.57500000000e+009 +1.11718224826e-003 +3.50909385110e-003 +9.52923575505e-001 -2.92591332116e-001 +9.52923575505e-001 -2.92591332116e-001 +1.11718224826e-003 +3.50909385110e-003
1.59375000000e+009 +1.14230528680e-003 +3.54479658387e-003 +9.51849539909e-001 -2.95962926296e-001 +9.51849539909e-001 -2.95962926296e-001 +1.14230528680e-003 +3.54479658387e-003
1.61250000000e+009 +1.16767424814e-003 +3.58030177377e-003 +9.50763585143e-001 -2.99330681504e-001 +9.50763585143e-001 -2.99330681504e-001 +1.16767424814e-003 +3.58030177377e-003
1.63125000000e+009 +1.19328770157e-003 +3.61560778661e-003 +9.49665723769e-001 -3.02694555841e-001 +9.49665723769e-001 -3.02694555841e-001 +1.19328770157e-003 +3.61560778661e-003
1.65000000000e+009 +1.21914420613e-003 +3.65071300104e-003 +9.48555968518e-001 -3.06054507447e-001 +9.48555968518e-001 -3.06054507447e-001 +1.21914420613e-003 +3.65071300104e-003
1.66875000000e+009 +1.24524231073e-003 +3.68561580847e-003 +9.47434332285e-001 -3.09410494494e-001 +9.47434332285e-001 -3.09410494494e-001 +1.24524231073e-003 +3.68561580847e-003
1.68750000000e+009 +1.27158055426e-003 +3.72031461321e-003 +9.46300828131e-001 -3.12762475195e-001 +9.46300828131e-001 -3.12762475195e-001 +1.27158055426e-003 +3.72031461321e-003
1.70625000000e+009 +1.29815746572e-003 +3.75480783239e-003 +9.45155469281e-001 -3.16110407798e-001 +9.45155469281e-001 -3.16110407798e-001 +1.29815746572e-003 +3.75480783239e-003
1.72500000000e+009 +1.32497156432e-003 +3.78909389601e-003 +9.43998269122e-001 -3.19454250591e-001 +9.43998269122e-001 -3.19454250591e-001 +1.32497156432e-003 +3.78909389601e-003
1.74375000000e+009 +1.35202135958e-003 +3.82317124699e-003 +9.42829241205e-001 -3.22793961900e-001 +9.42829241205e-001 -3.22793961900e-001 +1.35202135958e-003 +3.82317124699e-003
1.76250000000e+009 +1.37930535145e-003 +3.85703834114e-003 +9.41648399243e-001 -3.26129500092e-001 +9.41648399243e-001 -3.26129500092e-001 +1.37930535145e-003 +3.85703834114e-003
1.78125000000e+009 +1.40682203043e-003 +3.89069364721e-003 +9.40455757109e-001 -3.29460823573e-001 +9.40455757109e-001 -3.29460823573e-001 +1.40682203043e-003 +3.89069364720e-003
1.80000000000e+009 +1.43456987764e-003 +3.92413564687e-003 +9.39251328837e-001 -3.32787890790e-001 +9.39251328837e-001 -3.32787890790e-001 +1.43456987764e-003 +3.92413564687e-003
1.81875000000e+009 +1.46254736499e-003 +3.95736283479e-003 +9.38035128622e-001 -3.36110660232e-001 +9.38035128622e-001 -3.36110660232e-001 +1.46254736499e-003 +3.95736283479e-003
1.83750000000e+009 +1.49075295523e-003 +3.99037371859e-003 +9.36807170816e-001 -3.39429090432e-001 +9.36807170816e-001 -3.39429090432e-001 +1.49075295523e-003 +3.99037371859e-003
1.85625000000e+009 +1.51918510208e-003 +4.02316681890e-003 +9.35567469932e-001 -3.42743139963e-001 +9.35567469932e-001 -3.42743139963e-001 +1.51918510208e-003 +4.02316681890e-003
1.87500000000e+009 +1.54784225036e-003 +4.05574066935e-003 +9.34316040639e-001 -3.46052767443e-001 +9.34316040639e-001 -3.46052767443e-001 +1.54784225036e-003 +4.05574066935e-003
1.89375000000e+009 +1.57672283604e-003 +4.08809381661e-003 +9.33052897767e-001 -3.49357931534e-001 +9.33052897767e-001 -3.49357931534e-001 +1.57672283604e-003 +4.08809381661e-003
1.91250000000e+009 +1.60582528640e-003 +4.12022482038e-003 +9.31778056298e-001 -3.52658590944e-001 +9.31778056298e-001 -3.52658590944e-001 +1.60582528640e-003 +4.12022482038e-003
1.93125000000e+009 +1.63514802009e-003 +4.15213225343e-003 +9.30491531376e-001 -3.55954704425e-001 +9.30491531376e-001 -3.55954704425e-001 +1.63514802009e-003 +4.15213225343e-003
1.95000000000e+009 +1.66468944729e-003 +4.18381470161e-003 +9.29193338296e-001 -3.59246230775e-001 +9.29193338296e-001 -3.59246230775e-001 +1.66468944729e-003 +4.18381470161e-003
1.96875000000e+009 +1.69444796974e-003 +4.21527076384e-003 +9.27883492513e-001 -3.62533128840e-001 +9.27883492513e-001 -3.62533128840e-001 +1.69444796974e-003 +4.21527076384e-003
1.98750000000e+009 +1.72442198092e-003 +4.24649905215e-003 +9.26562009633e-001 -3.65815357513e-001 +9.26562009633e-001 -3.65815357513e-001 +1.72442198092e-003 +4.24649905215e-003
2.00625000000e+009 +1.75460986609e-003 +4.27749819171e-003 +9.25228905420e-001 -3.69092875733e-001 +9.25228905420e-001 -3.69092875733e-001 +1.75460986609e-003 +4.27749819171e-003
2.02500000000e+009 +1.78501000244e-003 +4.30826682079e-003 +9.23884195790e-001 -3.72365642491e-001 +9.23884195790e-001 -3.72365642491e-001 +1.78501000244e-003 +4.30826682079e-003
2.04375000000e+009 +1.81562075914e-003 +4.33880359082e-003 +9.22527896813e-001 -3.75633616824e-001 +9.22527896813e-001 -3.75633616824e-001 +1.81562075914e-003 +4.33880359082e-003
2.06250000000e+009 +1.84644049751e-003 +4.36910716640e-003 +9.21160024714e-001 -3.78896757820e-001 +9.21160024714e-001 -3.78896757820e-001 +1.84644049751e-003 +4.36910716640e-003
