#   Hz   S  RI   R   50
! comment_to_be_done
0.000000e+00   -2.679104e-02  0.000000e+00    9.668647e-01  0.000000e+00    9.684779e-01  0.000000e+00   -3.111439e-02  0.000000e+00
1.875000e+07   -2.679049e-02  1.684889e-04    9.669743e-01 -8.406378e-03    9.685835e-01 -8.522453e-03   -3.112807e-02 -3.006133e-04
3.750000e+07   -2.678436e-02  3.368311e-04    9.669378e-01 -1.681336e-02    9.685345e-01 -1.704491e-02   -3.114080e-02 -6.012265e-04
5.625000e+07   -2.677338e-02  5.048393e-04    9.668156e-01 -2.521997e-02    9.683914e-01 -2.556575e-02   -3.115726e-02 -9.017263e-04
7.500000e+07   -2.675765e-02  6.723310e-04    9.666136e-01 -3.362542e-02    9.681601e-01 -3.408357e-02   -3.117788e-02 -1.202014e-03
9.375000e+07   -2.673722e-02  8.391258e-04    9.663338e-01 -4.202897e-02    9.678431e-01 -4.259704e-02   -3.120283e-02 -1.501995e-03
1.125000e+08   -2.671213e-02  1.005044e-03    9.659776e-01 -5.042991e-02    9.674417e-01 -5.110484e-02   -3.123219e-02 -1.801577e-03
1.312500e+08   -2.668243e-02  1.169908e-03    9.655455e-01 -5.882752e-02    9.669568e-01 -5.960569e-02   -3.126600e-02 -2.100669e-03
1.500000e+08   -2.664815e-02  1.333541e-03    9.650382e-01 -6.722112e-02    9.663893e-01 -6.809835e-02   -3.130428e-02 -2.399180e-03
1.687500e+08   -2.660936e-02  1.495768e-03    9.644558e-01 -7.561002e-02    9.657397e-01 -7.658159e-02   -3.134702e-02 -2.697024e-03
1.875000e+08   -2.656611e-02  1.656416e-03    9.637988e-01 -8.399352e-02    9.650089e-01 -8.505421e-02   -3.139423e-02 -2.994112e-03
2.062500e+08   -2.651847e-02  1.815314e-03    9.630673e-01 -9.237094e-02    9.641973e-01 -9.351508e-02   -3.144590e-02 -3.290360e-03
2.250000e+08   -2.646649e-02  1.972292e-03    9.622615e-01 -1.007416e-01    9.633057e-01 -1.019630e-01   -3.150200e-02 -3.585683e-03
2.437500e+08   -2.641026e-02  2.127184e-03    9.613817e-01 -1.091049e-01    9.623346e-01 -1.103970e-01   -3.156252e-02 -3.879999e-03
2.625000e+08   -2.634986e-02  2.279827e-03    9.604279e-01 -1.174600e-01    9.612848e-01 -1.188160e-01   -3.162744e-02 -4.173227e-03
2.812500e+08   -2.628537e-02  2.430059e-03    9.594003e-01 -1.258063e-01    9.601570e-01 -1.272190e-01   -3.169673e-02 -4.465287e-03
3.000000e+08   -2.621688e-02  2.577722e-03    9.582992e-01 -1.341432e-01    9.589518e-01 -1.356049e-01   -3.177035e-02 -4.756103e-03
3.187500e+08   -2.614450e-02  2.722662e-03    9.571245e-01 -1.424700e-01    9.576699e-01 -1.439730e-01   -3.184828e-02 -5.045598e-03
3.375000e+08   -2.606833e-02  2.864727e-03    9.558766e-01 -1.507860e-01    9.563122e-01 -1.523223e-01   -3.193048e-02 -5.333698e-03
3.562500e+08   -2.598846e-02  3.003770e-03    9.545554e-01 -1.590906e-01    9.548793e-01 -1.606519e-01   -3.201692e-02 -5.620332e-03
3.750000e+08   -2.590503e-02  3.139647e-03    9.531613e-01 -1.673830e-01    9.533719e-01 -1.689612e-01   -3.210755e-02 -5.905430e-03
3.937500e+08   -2.581815e-02  3.272218e-03    9.516943e-01 -1.756627e-01    9.517910e-01 -1.772494e-01   -3.220234e-02 -6.188923e-03
4.125000e+08   -2.572794e-02  3.401349e-03    9.501546e-01 -1.839290e-01    9.501372e-01 -1.855157e-01   -3.230125e-02 -6.470746e-03
4.312500e+08   -2.563453e-02  3.526908e-03    9.485424e-01 -1.921812e-01    9.484114e-01 -1.937597e-01   -3.240423e-02 -6.750835e-03
4.500000e+08   -2.553807e-02  3.648769e-03    9.468577e-01 -2.004186e-01    9.466143e-01 -2.019805e-01   -3.251124e-02 -7.029126e-03
4.687500e+08   -2.543868e-02  3.766811e-03    9.451009e-01 -2.086407e-01    9.447467e-01 -2.101779e-01   -3.262224e-02 -7.305561e-03
4.875000e+08   -2.533651e-02  3.880917e-03    9.432721e-01 -2.168468e-01    9.428093e-01 -2.183511e-01   -3.273718e-02 -7.580080e-03
5.062500e+08   -2.523171e-02  3.990976e-03    9.413715e-01 -2.250362e-01    9.408030e-01 -2.264999e-01   -3.285602e-02 -7.852628e-03
5.250000e+08   -2.512443e-02  4.096883e-03    9.393991e-01 -2.332082e-01    9.387285e-01 -2.346237e-01   -3.297870e-02 -8.123151e-03
5.437500e+08   -2.501483e-02  4.198537e-03    9.373554e-01 -2.413624e-01    9.365865e-01 -2.427222e-01   -3.310519e-02 -8.391595e-03
5.625000e+08   -2.490307e-02  4.295843e-03    9.352403e-01 -2.494979e-01    9.343777e-01 -2.507952e-01   -3.323544e-02 -8.657910e-03
5.812500e+08   -2.478932e-02  4.388712e-03    9.330542e-01 -2.576143e-01    9.321029e-01 -2.588423e-01   -3.336939e-02 -8.922048e-03
6.000000e+08   -2.467373e-02  4.477062e-03    9.307972e-01 -2.657107e-01    9.297627e-01 -2.668632e-01   -3.350701e-02 -9.183960e-03
6.187500e+08   -2.455649e-02  4.560816e-03    9.284696e-01 -2.737868e-01    9.273579e-01 -2.748578e-01   -3.364824e-02 -9.443601e-03
6.375000e+08   -2.443776e-02  4.639902e-03    9.260715e-01 -2.818417e-01    9.248889e-01 -2.828260e-01   -3.379304e-02 -9.700928e-03
6.562500e+08   -2.431773e-02  4.714257e-03    9.236033e-01 -2.898749e-01    9.223564e-01 -2.907675e-01   -3.394136e-02 -9.955897e-03
6.750000e+08   -2.419657e-02  4.783823e-03    9.210650e-01 -2.978857e-01    9.197611e-01 -2.986822e-01   -3.409316e-02 -1.020847e-02
6.937500e+08   -2.407445e-02  4.848548e-03    9.184570e-01 -3.058736e-01    9.171033e-01 -3.065702e-01   -3.424839e-02 -1.045860e-02
7.125000e+08   -2.395158e-02  4.908387e-03    9.157795e-01 -3.138380e-01    9.143837e-01 -3.144312e-01   -3.440700e-02 -1.070625e-02
7.312500e+08   -2.382812e-02  4.963303e-03    9.130327e-01 -3.217782e-01    9.116026e-01 -3.222652e-01   -3.456895e-02 -1.095139e-02
7.500000e+08   -2.370428e-02  5.013263e-03    9.102169e-01 -3.296936e-01    9.087606e-01 -3.300723e-01   -3.473419e-02 -1.119398e-02
7.687500e+08   -2.358023e-02  5.058244e-03    9.073324e-01 -3.375836e-01    9.058579e-01 -3.378525e-01   -3.490268e-02 -1.143398e-02
7.875000e+08   -2.345616e-02  5.098228e-03    9.043793e-01 -3.454477e-01    9.028951e-01 -3.456056e-01   -3.507438e-02 -1.167136e-02
8.062500e+08   -2.333227e-02  5.133203e-03    9.013580e-01 -3.532852e-01    8.998723e-01 -3.533318e-01   -3.524924e-02 -1.190609e-02
8.250000e+08   -2.320875e-02  5.163167e-03    8.982687e-01 -3.610955e-01    8.967899e-01 -3.610310e-01   -3.542722e-02 -1.213813e-02
8.437500e+08   -2.308578e-02  5.188122e-03    8.951117e-01 -3.688781e-01    8.936481e-01 -3.687033e-01   -3.560828e-02 -1.236744e-02
8.625000e+08   -2.296356e-02  5.208079e-03    8.918872e-01 -3.766323e-01    8.904471e-01 -3.763487e-01   -3.579237e-02 -1.259400e-02
8.812500e+08   -2.284229e-02  5.223054e-03    8.885956e-01 -3.843576e-01    8.871871e-01 -3.839671e-01   -3.597946e-02 -1.281778e-02
9.000000e+08   -2.272214e-02  5.233072e-03    8.852372e-01 -3.920535e-01    8.838682e-01 -3.915587e-01   -3.616950e-02 -1.303874e-02
9.187500e+08   -2.260331e-02  5.238164e-03    8.818122e-01 -3.997193e-01    8.804906e-01 -3.991233e-01   -3.636246e-02 -1.325686e-02
9.375000e+08   -2.248599e-02  5.238367e-03    8.783209e-01 -4.073545e-01    8.770541e-01 -4.066610e-01   -3.655829e-02 -1.347210e-02
9.562500e+08   -2.237036e-02  5.233728e-03    8.747636e-01 -4.149584e-01    8.735590e-01 -4.141718e-01   -3.675696e-02 -1.368443e-02
9.750000e+08   -2.225662e-02  5.224297e-03    8.711407e-01 -4.225306e-01    8.700051e-01 -4.216556e-01   -3.695842e-02 -1.389382e-02
9.937500e+08   -2.214494e-02  5.210133e-03    8.674524e-01 -4.300705e-01    8.663925e-01 -4.291123e-01   -3.716264e-02 -1.410024e-02
1.012500e+09   -2.203552e-02  5.191301e-03    8.636991e-01 -4.375776e-01    8.627210e-01 -4.365419e-01   -3.736958e-02 -1.430366e-02
1.031250e+09   -2.192852e-02  5.167873e-03    8.598811e-01 -4.450512e-01    8.589906e-01 -4.439442e-01   -3.757920e-02 -1.450405e-02
1.050000e+09   -2.182413e-02  5.139928e-03    8.559986e-01 -4.524908e-01    8.552011e-01 -4.513192e-01   -3.779147e-02 -1.470138e-02
1.068750e+09   -2.172252e-02  5.107550e-03    8.520521e-01 -4.598960e-01    8.513525e-01 -4.586665e-01   -3.800634e-02 -1.489561e-02
1.087500e+09   -2.162386e-02  5.070831e-03    8.480418e-01 -4.672661e-01    8.474445e-01 -4.659862e-01   -3.822378e-02 -1.508672e-02
1.106250e+09   -2.152833e-02  5.029867e-03    8.439681e-01 -4.746006e-01    8.434769e-01 -4.732778e-01   -3.844375e-02 -1.527468e-02
1.125000e+09   -2.143608e-02  4.984763e-03    8.398313e-01 -4.818990e-01    8.394496e-01 -4.805412e-01   -3.866621e-02 -1.545945e-02
1.143750e+09   -2.134729e-02  4.935628e-03    8.356318e-01 -4.891607e-01    8.353624e-01 -4.877760e-01   -3.889112e-02 -1.564100e-02
1.162500e+09   -2.126211e-02  4.882577e-03    8.313699e-01 -4.963854e-01    8.312149e-01 -4.949820e-01   -3.911845e-02 -1.581929e-02
1.181250e+09   -2.118068e-02  4.825731e-03    8.270459e-01 -5.035723e-01    8.270071e-01 -5.021588e-01   -3.934816e-02 -1.599431e-02
1.200000e+09   -2.110317e-02  4.765216e-03    8.226603e-01 -5.107210e-01    8.227385e-01 -5.093059e-01   -3.958020e-02 -1.616600e-02
1.218750e+09   -2.102972e-02  4.701165e-03    8.182133e-01 -5.178310e-01    8.184091e-01 -5.164230e-01   -3.981454e-02 -1.633435e-02
1.237500e+09   -2.096047e-02  4.633715e-03    8.137054e-01 -5.249018e-01    8.140185e-01 -5.235094e-01   -4.005114e-02 -1.649931e-02
1.256250e+09   -2.089555e-02  4.563006e-03    8.091368e-01 -5.319329e-01    8.095665e-01 -5.305649e-01   -4.028996e-02 -1.666085e-02
1.275000e+09   -2.083511e-02  4.489187e-03    8.045080e-01 -5.389238e-01    8.050529e-01 -5.375887e-01   -4.053095e-02 -1.681894e-02
1.293750e+09   -2.077925e-02  4.412409e-03    7.998193e-01 -5.458740e-01    8.004774e-01 -5.445803e-01   -4.077407e-02 -1.697355e-02
1.312500e+09   -2.072811e-02  4.332828e-03    7.950712e-01 -5.527829e-01    7.958399e-01 -5.515390e-01   -4.101929e-02 -1.712463e-02
1.331250e+09   -2.068180e-02  4.250604e-03    7.902639e-01 -5.596502e-01    7.911401e-01 -5.584643e-01   -4.126655e-02 -1.727216e-02
1.350000e+09   -2.064043e-02  4.165901e-03    7.853978e-01 -5.664753e-01    7.863779e-01 -5.653553e-01   -4.151581e-02 -1.741610e-02
1.368750e+09   -2.060410e-02  4.078887e-03    7.804734e-01 -5.732577e-01    7.815530e-01 -5.722114e-01   -4.176702e-02 -1.755642e-02
1.387500e+09   -2.057292e-02  3.989735e-03    7.754911e-01 -5.799970e-01    7.766654e-01 -5.790318e-01   -4.202015e-02 -1.769307e-02
1.406250e+09   -2.054697e-02  3.898619e-03    7.704511e-01 -5.866927e-01    7.717148e-01 -5.858157e-01   -4.227513e-02 -1.782604e-02
1.425000e+09   -2.052635e-02  3.805718e-03    7.653539e-01 -5.933443e-01    7.667014e-01 -5.925623e-01   -4.253193e-02 -1.795528e-02
1.443750e+09   -2.051113e-02  3.711213e-03    7.602000e-01 -5.999514e-01    7.616248e-01 -5.992707e-01   -4.279049e-02 -1.808075e-02
1.462500e+09   -2.050139e-02  3.615288e-03    7.549896e-01 -6.065135e-01    7.564852e-01 -6.059400e-01   -4.305076e-02 -1.820244e-02
1.481250e+09   -2.049720e-02  3.518131e-03    7.497233e-01 -6.130301e-01    7.512825e-01 -6.125693e-01   -4.331269e-02 -1.832030e-02
1.500000e+09   -2.049862e-02  3.419930e-03    7.444013e-01 -6.195008e-01    7.460168e-01 -6.191576e-01   -4.357622e-02 -1.843429e-02
1.518750e+09   -2.050570e-02  3.320878e-03    7.390242e-01 -6.259251e-01    7.406881e-01 -6.257041e-01   -4.384131e-02 -1.854440e-02
1.537500e+09   -2.051850e-02  3.221166e-03    7.335922e-01 -6.323027e-01    7.352965e-01 -6.322078e-01   -4.410788e-02 -1.865058e-02
1.556250e+09   -2.053706e-02  3.120990e-03    7.281059e-01 -6.386330e-01    7.298423e-01 -6.386676e-01   -4.437590e-02 -1.875280e-02
1.575000e+09   -2.056141e-02  3.020547e-03    7.225657e-01 -6.449156e-01    7.243255e-01 -6.450826e-01   -4.464529e-02 -1.885104e-02
1.593750e+09   -2.059159e-02  2.920033e-03    7.169719e-01 -6.511500e-01    7.187464e-01 -6.514518e-01   -4.491600e-02 -1.894527e-02
1.612500e+09   -2.062761e-02  2.819649e-03    7.113250e-01 -6.573360e-01    7.131053e-01 -6.577741e-01   -4.518797e-02 -1.903545e-02
1.631250e+09   -2.066951e-02  2.719593e-03    7.056254e-01 -6.634729e-01    7.074025e-01 -6.640485e-01   -4.546114e-02 -1.912157e-02
1.650000e+09   -2.071728e-02  2.620066e-03    6.998735e-01 -6.695605e-01    7.016384e-01 -6.702740e-01   -4.573544e-02 -1.920359e-02
1.668750e+09   -2.077093e-02  2.521268e-03    6.940697e-01 -6.755982e-01    6.958134e-01 -6.764496e-01   -4.601081e-02 -1.928148e-02
1.687500e+09   -2.083045e-02  2.423401e-03    6.882146e-01 -6.815857e-01    6.899278e-01 -6.825743e-01   -4.628719e-02 -1.935524e-02
1.706250e+09   -2.089585e-02  2.326664e-03    6.823084e-01 -6.875225e-01    6.839823e-01 -6.886470e-01   -4.656450e-02 -1.942482e-02
1.725000e+09   -2.096710e-02  2.231260e-03    6.763518e-01 -6.934083e-01    6.779773e-01 -6.946668e-01   -4.684269e-02 -1.949021e-02
1.743750e+09   -2.104418e-02  2.137387e-03    6.703450e-01 -6.992425e-01    6.719134e-01 -7.006326e-01   -4.712169e-02 -1.955140e-02
1.762500e+09   -2.112707e-02  2.045246e-03    6.642885e-01 -7.050250e-01    6.657912e-01 -7.065436e-01   -4.740142e-02 -1.960836e-02
1.781250e+09   -2.121572e-02  1.955036e-03    6.581828e-01 -7.107551e-01    6.596115e-01 -7.123987e-01   -4.768182e-02 -1.966107e-02
1.800000e+09   -2.131010e-02  1.866954e-03    6.520283e-01 -7.164326e-01    6.533748e-01 -7.181970e-01   -4.796281e-02 -1.970952e-02
1.818750e+09   -2.141016e-02  1.781197e-03    6.458255e-01 -7.220570e-01    6.470820e-01 -7.239376e-01   -4.824434e-02 -1.975370e-02
1.837500e+09   -2.151584e-02  1.697960e-03    6.395747e-01 -7.276280e-01    6.407337e-01 -7.296196e-01   -4.852632e-02 -1.979358e-02
1.856250e+09   -2.162709e-02  1.617438e-03    6.332766e-01 -7.331451e-01    6.343308e-01 -7.352421e-01   -4.880868e-02 -1.982918e-02
1.875000e+09   -2.174384e-02  1.539821e-03    6.269314e-01 -7.386080e-01    6.278742e-01 -7.408044e-01   -4.909136e-02 -1.986046e-02
1.893750e+09   -2.186601e-02  1.465300e-03    6.205397e-01 -7.440164e-01    6.213647e-01 -7.463057e-01   -4.937428e-02 -1.988743e-02
1.912500e+09   -2.199353e-02  1.394063e-03    6.141019e-01 -7.493697e-01    6.148033e-01 -7.517451e-01   -4.965738e-02 -1.991008e-02
1.931250e+09   -2.212632e-02  1.326296e-03    6.076186e-01 -7.546678e-01    6.081907e-01 -7.571220e-01   -4.994057e-02 -1.992840e-02
1.950000e+09   -2.226428e-02  1.262182e-03    6.010900e-01 -7.599101e-01    6.015280e-01 -7.624357e-01   -5.022378e-02 -1.994240e-02
1.968750e+09   -2.240732e-02  1.201901e-03    5.945168e-01 -7.650963e-01    5.948162e-01 -7.676854e-01   -5.050695e-02 -1.995207e-02
1.987500e+09   -2.255534e-02  1.145632e-03    5.878994e-01 -7.702262e-01    5.880562e-01 -7.728707e-01   -5.079000e-02 -1.995741e-02
2.006250e+09   -2.270822e-02  1.093548e-03    5.812382e-01 -7.752992e-01    5.812491e-01 -7.779909e-01   -5.107286e-02 -1.995843e-02
2.025000e+09   -2.286586e-02  1.045822e-03    5.745337e-01 -7.803151e-01    5.743958e-01 -7.830456e-01   -5.135546e-02 -1.995513e-02
2.043750e+09   -2.302814e-02  1.002623e-03    5.677864e-01 -7.852735e-01    5.674974e-01 -7.880341e-01   -5.163772e-02 -1.994751e-02
2.062500e+09   -2.319493e-02  9.641140e-04    5.609968e-01 -7.901740e-01    5.605549e-01 -7.929562e-01   -5.191958e-02 -1.993558e-02
2.081250e+09   -2.336610e-02  9.304581e-04    5.541654e-01 -7.950164e-01    5.535694e-01 -7.978113e-01   -5.220097e-02 -1.991935e-02
2.100000e+09   -2.354153e-02  9.018124e-04    5.472926e-01 -7.998002e-01    5.465419e-01 -8.025992e-01   -5.248181e-02 -1.989883e-02
2.118750e+09   -2.372107e-02  8.783306e-04    5.403788e-01 -8.045251e-01    5.394734e-01 -8.073194e-01   -5.276203e-02 -1.987403e-02
2.137500e+09   -2.390457e-02  8.601625e-04    5.334247e-01 -8.091909e-01    5.323650e-01 -8.119718e-01   -5.304157e-02 -1.984496e-02
2.156250e+09   -2.409190e-02  8.474536e-04    5.264307e-01 -8.137971e-01    5.252177e-01 -8.165561e-01   -5.332037e-02 -1.981165e-02
2.175000e+09   -2.428289e-02  8.403450e-04    5.193973e-01 -8.183434e-01    5.180325e-01 -8.210720e-01   -5.359834e-02 -1.977409e-02
2.193750e+09   -2.447738e-02  8.389734e-04    5.123249e-01 -8.228296e-01    5.108105e-01 -8.255195e-01   -5.387543e-02 -1.973232e-02
2.212500e+09   -2.467522e-02  8.434710e-04    5.052140e-01 -8.272553e-01    5.035526e-01 -8.298984e-01   -5.415157e-02 -1.968634e-02
2.231250e+09   -2.487624e-02  8.539649e-04    4.980653e-01 -8.316201e-01    4.962598e-01 -8.342087e-01   -5.442669e-02 -1.963618e-02
2.250000e+09   -2.508026e-02  8.705776e-04    4.908791e-01 -8.359238e-01    4.889332e-01 -8.384502e-01   -5.470074e-02 -1.958185e-02
2.268750e+09   -2.528711e-02  8.934266e-04    4.836559e-01 -8.401660e-01    4.815735e-01 -8.426230e-01   -5.497364e-02 -1.952337e-02
2.287500e+09   -2.549662e-02  9.226241e-04    4.763964e-01 -8.443465e-01    4.741818e-01 -8.467270e-01   -5.524534e-02 -1.946078e-02
2.306250e+09   -2.570859e-02  9.582770e-04    4.691008e-01 -8.484649e-01    4.667590e-01 -8.507624e-01   -5.551578e-02 -1.939408e-02
2.325000e+09   -2.592284e-02  1.000487e-03    4.617699e-01 -8.525209e-01    4.593059e-01 -8.547291e-01   -5.578488e-02 -1.932330e-02
2.343750e+09   -2.613919e-02  1.049350e-03    4.544040e-01 -8.565143e-01    4.518234e-01 -8.586273e-01   -5.605260e-02 -1.924847e-02
2.362500e+09   -2.635744e-02  1.104957e-03    4.470038e-01 -8.604447e-01    4.443123e-01 -8.624572e-01   -5.631888e-02 -1.916961e-02
2.381250e+09   -2.657739e-02  1.167391e-03    4.395697e-01 -8.643118e-01    4.367733e-01 -8.662187e-01   -5.658365e-02 -1.908673e-02
2.400000e+09   -2.679884e-02  1.236733e-03    4.321022e-01 -8.681154e-01    4.292073e-01 -8.699122e-01   -5.684686e-02 -1.899988e-02
2.418750e+09   -2.702159e-02  1.313055e-03    4.246018e-01 -8.718552e-01    4.216150e-01 -8.735377e-01   -5.710846e-02 -1.890907e-02
2.437500e+09   -2.724544e-02  1.396424e-03    4.170691e-01 -8.755309e-01    4.139970e-01 -8.770954e-01   -5.736839e-02 -1.881434e-02
2.456250e+09   -2.747018e-02  1.486900e-03    4.095046e-01 -8.791422e-01    4.063541e-01 -8.805856e-01   -5.762659e-02 -1.871569e-02
2.475000e+09   -2.769560e-02  1.584538e-03    4.019089e-01 -8.826889e-01    3.986869e-01 -8.840084e-01   -5.788300e-02 -1.861317e-02
2.493750e+09   -2.792148e-02  1.689386e-03    3.942824e-01 -8.861706e-01    3.909959e-01 -8.873641e-01   -5.813759e-02 -1.850680e-02
2.512500e+09   -2.814762e-02  1.801486e-03    3.866257e-01 -8.895871e-01    3.832818e-01 -8.906529e-01   -5.839029e-02 -1.839661e-02
2.531250e+09   -2.837380e-02  1.920873e-03    3.789393e-01 -8.929382e-01    3.755450e-01 -8.938749e-01   -5.864105e-02 -1.828262e-02
2.550000e+09   -2.859981e-02  2.047575e-03    3.712238e-01 -8.962236e-01    3.677862e-01 -8.970304e-01   -5.888982e-02 -1.816486e-02
2.568750e+09   -2.882542e-02  2.181616e-03    3.634796e-01 -8.994430e-01    3.600057e-01 -9.001196e-01   -5.913654e-02 -1.804336e-02
2.587500e+09   -2.905041e-02  2.323010e-03    3.557074e-01 -9.025961e-01    3.522041e-01 -9.031427e-01   -5.938118e-02 -1.791814e-02
2.606250e+09   -2.927457e-02  2.471765e-03    3.479077e-01 -9.056828e-01    3.443817e-01 -9.060999e-01   -5.962368e-02 -1.778924e-02
2.625000e+09   -2.949767e-02  2.627885e-03    3.400810e-01 -9.087028e-01    3.365390e-01 -9.089913e-01   -5.986398e-02 -1.765668e-02
2.643750e+09   -2.971950e-02  2.791364e-03    3.322279e-01 -9.116558e-01    3.286762e-01 -9.118173e-01   -6.010204e-02 -1.752049e-02
2.662500e+09   -2.993984e-02  2.962191e-03    3.243489e-01 -9.145417e-01    3.207938e-01 -9.145778e-01   -6.033782e-02 -1.738070e-02
2.681250e+09   -3.015846e-02  3.140347e-03    3.164446e-01 -9.173601e-01    3.128921e-01 -9.172730e-01   -6.057125e-02 -1.723733e-02
2.700000e+09   -3.037513e-02  3.325807e-03    3.085156e-01 -9.201108e-01    3.049714e-01 -9.199032e-01   -6.080230e-02 -1.709042e-02
2.718750e+09   -3.058965e-02  3.518539e-03    3.005623e-01 -9.227937e-01    2.970319e-01 -9.224683e-01   -6.103091e-02 -1.693999e-02
2.737500e+09   -3.080179e-02  3.718503e-03    2.925854e-01 -9.254084e-01    2.890739e-01 -9.249685e-01   -6.125704e-02 -1.678607e-02
2.756250e+09   -3.101133e-02  3.925655e-03    2.845853e-01 -9.279548e-01    2.810977e-01 -9.274039e-01   -6.148064e-02 -1.662869e-02
2.775000e+09   -3.121806e-02  4.139942e-03    2.765628e-01 -9.304327e-01    2.731035e-01 -9.297744e-01   -6.170165e-02 -1.646788e-02
2.793750e+09   -3.142175e-02  4.361303e-03    2.685183e-01 -9.328419e-01    2.650915e-01 -9.320801e-01   -6.192003e-02 -1.630366e-02
