#   Hz   S  RI   R   50
! comment_to_be_done
0.000000e+00   -2.679104e-02  0.000000e+00    9.668647e-01  0.000000e+00    9.684779e-01  0.000000e+00   -3.111439e-02  0.000000e+00
1.875000e+07   -2.678780e-02  2.107696e-04    9.667920e-01 -1.183328e-02    9.684005e-01 -1.195504e-02   -3.111790e-02 -3.469272e-05
3.750000e+07   -2.677807e-02  4.213004e-04    9.665737e-01 -2.366474e-02    9.681684e-01 -2.390755e-02   -3.112844e-02 -6.916442e-05
5.625000e+07   -2.676189e-02  6.313537e-04    9.662101e-01 -3.549258e-02    9.677816e-01 -3.585499e-02   -3.114600e-02 -1.031944e-04
7.500000e+07   -2.673926e-02  8.406917e-04    9.657010e-01 -4.731498e-02    9.672404e-01 -4.779485e-02   -3.117055e-02 -1.365624e-04
9.375000e+07   -2.671021e-02  1.049077e-03    9.650467e-01 -5.913012e-02    9.665451e-01 -5.972461e-02   -3.120207e-02 -1.690494e-04
1.125000e+08   -2.667478e-02  1.256274e-03    9.642472e-01 -7.093620e-02    9.656959e-01 -7.164180e-02   -3.124053e-02 -2.004374e-04
1.312500e+08   -2.663302e-02  1.462048e-03    9.633026e-01 -8.273140e-02    9.646934e-01 -8.354395e-02   -3.128590e-02 -2.305100e-04
1.500000e+08   -2.658498e-02  1.666166e-03    9.622131e-01 -9.451393e-02    9.635381e-01 -9.542862e-02   -3.133812e-02 -2.590523e-04
1.687500e+08   -2.653073e-02  1.868398e-03    9.609789e-01 -1.062820e-01    9.622304e-01 -1.072934e-01   -3.139715e-02 -2.858520e-04
1.875000e+08   -2.647033e-02  2.068514e-03    9.596002e-01 -1.180337e-01    9.607712e-01 -1.191359e-01   -3.146293e-02 -3.106987e-04
2.062500e+08   -2.640386e-02  2.266290e-03    9.580772e-01 -1.297674e-01    9.591610e-01 -1.309539e-01   -3.153538e-02 -3.333848e-04
2.250000e+08   -2.633141e-02  2.461501e-03    9.564101e-01 -1.414812e-01    9.574006e-01 -1.427450e-01   -3.161446e-02 -3.537055e-04
2.437500e+08   -2.625308e-02  2.653928e-03    9.545992e-01 -1.531733e-01    9.554909e-01 -1.545070e-01   -3.170007e-02 -3.714590e-04
2.625000e+08   -2.616895e-02  2.843355e-03    9.526448e-01 -1.648420e-01    9.534328e-01 -1.662377e-01   -3.179213e-02 -3.864468e-04
2.812500e+08   -2.607916e-02  3.029567e-03    9.505473e-01 -1.764854e-01    9.512272e-01 -1.779350e-01   -3.189056e-02 -3.984741e-04
3.000000e+08   -2.598380e-02  3.212356e-03    9.483069e-01 -1.881018e-01    9.488750e-01 -1.895968e-01   -3.199526e-02 -4.073494e-04
3.187500e+08   -2.588301e-02  3.391518e-03    9.459240e-01 -1.996894e-01    9.463775e-01 -2.012211e-01   -3.210614e-02 -4.128853e-04
3.375000e+08   -2.577691e-02  3.566851e-03    9.433991e-01 -2.112465e-01    9.437355e-01 -2.128059e-01   -3.222309e-02 -4.148983e-04
3.562500e+08   -2.566565e-02  3.738159e-03    9.407324e-01 -2.227713e-01    9.409502e-01 -2.243493e-01   -3.234600e-02 -4.132089e-04
3.750000e+08   -2.554937e-02  3.905252e-03    9.379246e-01 -2.342619e-01    9.380227e-01 -2.358494e-01   -3.247477e-02 -4.076420e-04
3.937500e+08   -2.542822e-02  4.067944e-03    9.349759e-01 -2.457168e-01    9.349543e-01 -2.473045e-01   -3.260926e-02 -3.980267e-04
4.125000e+08   -2.530236e-02  4.226052e-03    9.318869e-01 -2.571341e-01    9.317461e-01 -2.587129e-01   -3.274938e-02 -3.841966e-04
4.312500e+08   -2.517195e-02  4.379404e-03    9.286581e-01 -2.685121e-01    9.283993e-01 -2.700728e-01   -3.289498e-02 -3.659898e-04
4.500000e+08   -2.503716e-02  4.527828e-03    9.252900e-01 -2.798490e-01    9.249151e-01 -2.813828e-01   -3.304595e-02 -3.432487e-04
4.687500e+08   -2.489817e-02  4.671163e-03    9.217831e-01 -2.911433e-01    9.212947e-01 -2.926412e-01   -3.320215e-02 -3.158206e-04
4.875000e+08   -2.475517e-02  4.809249e-03    9.181381e-01 -3.023930e-01    9.175394e-01 -3.038466e-01   -3.336345e-02 -2.835570e-04
5.062500e+08   -2.460834e-02  4.941937e-03    9.143554e-01 -3.135967e-01    9.136505e-01 -3.149975e-01   -3.352971e-02 -2.463142e-04
5.250000e+08   -2.445787e-02  5.069082e-03    9.104357e-01 -3.247524e-01    9.096291e-01 -3.260926e-01   -3.370079e-02 -2.039531e-04
5.437500e+08   -2.430396e-02  5.190546e-03    9.063796e-01 -3.358586e-01    9.054764e-01 -3.371306e-01   -3.387655e-02 -1.563391e-04
5.625000e+08   -2.414681e-02  5.306199e-03    9.021879e-01 -3.469137e-01    9.011938e-01 -3.481103e-01   -3.405684e-02 -1.033419e-04
5.812500e+08   -2.398664e-02  5.415915e-03    8.978610e-01 -3.579158e-01    8.967823e-01 -3.590304e-01   -3.424153e-02 -4.483596e-05
6.000000e+08   -2.382364e-02  5.519580e-03    8.933998e-01 -3.688634e-01    8.922432e-01 -3.698898e-01   -3.443046e-02  1.930004e-05
6.187500e+08   -2.365804e-02  5.617082e-03    8.888050e-01 -3.797548e-01    8.875776e-01 -3.806873e-01   -3.462348e-02  8.918305e-05
6.375000e+08   -2.349006e-02  5.708321e-03    8.840772e-01 -3.905884e-01    8.827867e-01 -3.914220e-01   -3.482044e-02  1.649257e-04
6.562500e+08   -2.331992e-02  5.793201e-03    8.792173e-01 -4.013625e-01    8.778716e-01 -4.020927e-01   -3.502119e-02  2.466366e-04
6.750000e+08   -2.314785e-02  5.871636e-03    8.742259e-01 -4.120756e-01    8.728334e-01 -4.126986e-01   -3.522557e-02  3.344200e-04
6.937500e+08   -2.297407e-02  5.943548e-03    8.691040e-01 -4.227260e-01    8.676731e-01 -4.232385e-01   -3.543344e-02  4.283764e-04
7.125000e+08   -2.279881e-02  6.008864e-03    8.638522e-01 -4.333121e-01    8.623918e-01 -4.337117e-01   -3.564463e-02  5.286024e-04
7.312500e+08   -2.262232e-02  6.067521e-03    8.584715e-01 -4.438324e-01    8.569904e-01 -4.441171e-01   -3.585899e-02  6.351905e-04
7.500000e+08   -2.244482e-02  6.119465e-03    8.529627e-01 -4.542853e-01    8.514700e-01 -4.544540e-01   -3.607636e-02  7.482298e-04
7.687500e+08   -2.226656e-02  6.164648e-03    8.473266e-01 -4.646692e-01    8.458315e-01 -4.647215e-01   -3.629659e-02  8.678056e-04
7.875000e+08   -2.208778e-02  6.203032e-03    8.415642e-01 -4.749826e-01    8.400757e-01 -4.749186e-01   -3.651950e-02  9.939999e-04
8.062500e+08   -2.190872e-02  6.234585e-03    8.356764e-01 -4.852239e-01    8.342036e-01 -4.850446e-01   -3.674495e-02  1.126891e-03
8.250000e+08   -2.172962e-02  6.259286e-03    8.296640e-01 -4.953917e-01    8.282160e-01 -4.950987e-01   -3.697278e-02  1.266554e-03
8.437500e+08   -2.155072e-02  6.277119e-03    8.235280e-01 -5.054844e-01    8.221136e-01 -5.050800e-01   -3.720282e-02  1.413061e-03
8.625000e+08   -2.137227e-02  6.288079e-03    8.172695e-01 -5.155005e-01    8.158973e-01 -5.149877e-01   -3.743491e-02  1.566481e-03
8.812500e+08   -2.119452e-02  6.292169e-03    8.108892e-01 -5.254385e-01    8.095677e-01 -5.248209e-01   -3.766889e-02  1.726880e-03
9.000000e+08   -2.101771e-02  6.289399e-03    8.043884e-01 -5.352971e-01    8.031256e-01 -5.345789e-01   -3.790460e-02  1.894319e-03
9.187500e+08   -2.084207e-02  6.279788e-03    7.977679e-01 -5.450746e-01    7.965717e-01 -5.442607e-01   -3.814187e-02  2.068859e-03
9.375000e+08   -2.066787e-02  6.263363e-03    7.910288e-01 -5.547698e-01    7.899066e-01 -5.538656e-01   -3.838055e-02  2.250557e-03
9.562500e+08   -2.049533e-02  6.240160e-03    7.841722e-01 -5.643811e-01    7.831309e-01 -5.633926e-01   -3.862046e-02  2.439468e-03
9.750000e+08   -2.032470e-02  6.210222e-03    7.771991e-01 -5.739071e-01    7.762453e-01 -5.728409e-01   -3.886145e-02  2.635641e-03
9.937500e+08   -2.015623e-02  6.173602e-03    7.701106e-01 -5.833465e-01    7.692503e-01 -5.822095e-01   -3.910335e-02  2.839127e-03
1.012500e+09   -1.999014e-02  6.130358e-03    7.629078e-01 -5.926978e-01    7.621464e-01 -5.914975e-01   -3.934599e-02  3.049971e-03
1.031250e+09   -1.982668e-02  6.080560e-03    7.555918e-01 -6.019598e-01    7.549343e-01 -6.007040e-01   -3.958921e-02  3.268216e-03
1.050000e+09   -1.966609e-02  6.024284e-03    7.481638e-01 -6.111309e-01    7.476145e-01 -6.098279e-01   -3.983283e-02  3.493903e-03
1.068750e+09   -1.950858e-02  5.961612e-03    7.406248e-01 -6.202100e-01    7.401874e-01 -6.188682e-01   -4.007670e-02  3.727071e-03
1.087500e+09   -1.935440e-02  5.892637e-03    7.329761e-01 -6.291957e-01    7.326536e-01 -6.278239e-01   -4.032063e-02  3.967754e-03
1.106250e+09   -1.920377e-02  5.817458e-03    7.252188e-01 -6.380866e-01    7.250137e-01 -6.366939e-01   -4.056447e-02  4.215985e-03
1.125000e+09   -1.905692e-02  5.736183e-03    7.173540e-01 -6.468815e-01    7.172680e-01 -6.454771e-01   -4.080805e-02  4.471794e-03
1.143750e+09   -1.891405e-02  5.648925e-03    7.093832e-01 -6.555791e-01    7.094173e-01 -6.541723e-01   -4.105118e-02  4.735209e-03
1.162500e+09   -1.877540e-02  5.555806e-03    7.013073e-01 -6.641781e-01    7.014619e-01 -6.627783e-01   -4.129370e-02  5.006254e-03
1.181250e+09   -1.864117e-02  5.456956e-03    6.931277e-01 -6.726774e-01    6.934024e-01 -6.712939e-01   -4.153544e-02  5.284950e-03
1.200000e+09   -1.851157e-02  5.352510e-03    6.848456e-01 -6.810756e-01    6.852394e-01 -6.797178e-01   -4.177621e-02  5.571317e-03
1.218750e+09   -1.838680e-02  5.242612e-03    6.764623e-01 -6.893715e-01    6.769734e-01 -6.880488e-01   -4.201585e-02  5.865369e-03
1.237500e+09   -1.826706e-02  5.127412e-03    6.679790e-01 -6.975640e-01    6.686050e-01 -6.962856e-01   -4.225418e-02  6.167121e-03
1.256250e+09   -1.815256e-02  5.007066e-03    6.593971e-01 -7.056519e-01    6.601349e-01 -7.044267e-01   -4.249102e-02  6.476582e-03
1.275000e+09   -1.804347e-02  4.881737e-03    6.507178e-01 -7.136339e-01    6.515636e-01 -7.124708e-01   -4.272619e-02  6.793757e-03
1.293750e+09   -1.793998e-02  4.751594e-03    6.419424e-01 -7.215091e-01    6.428919e-01 -7.204164e-01   -4.295951e-02  7.118651e-03
1.312500e+09   -1.784227e-02  4.616814e-03    6.330723e-01 -7.292761e-01    6.341204e-01 -7.282621e-01   -4.319080e-02  7.451263e-03
1.331250e+09   -1.775051e-02  4.477577e-03    6.241088e-01 -7.369340e-01    6.252499e-01 -7.360065e-01   -4.341988e-02  7.791590e-03
1.350000e+09   -1.766487e-02  4.334070e-03    6.150533e-01 -7.444816e-01    6.162811e-01 -7.436480e-01   -4.364657e-02  8.139624e-03
1.368750e+09   -1.758551e-02  4.186486e-03    6.059071e-01 -7.519178e-01    6.072149e-01 -7.511850e-01   -4.387069e-02  8.495355e-03
1.387500e+09   -1.751259e-02  4.035024e-03    5.966716e-01 -7.592416e-01    5.980522e-01 -7.586161e-01   -4.409204e-02  8.858768e-03
1.406250e+09   -1.744625e-02  3.879885e-03    5.873481e-01 -7.664519e-01    5.887938e-01 -7.659397e-01   -4.431044e-02  9.229844e-03
1.425000e+09   -1.738664e-02  3.721280e-03    5.779381e-01 -7.735477e-01    5.794408e-01 -7.731541e-01   -4.452571e-02  9.608561e-03
1.443750e+09   -1.733389e-02  3.559419e-03    5.684430e-01 -7.805280e-01    5.699941e-01 -7.802578e-01   -4.473766e-02  9.994893e-03
1.462500e+09   -1.728813e-02  3.394521e-03    5.588643e-01 -7.873917e-01    5.604549e-01 -7.872492e-01   -4.494611e-02  1.038881e-02
1.481250e+09   -1.724949e-02  3.226807e-03    5.492032e-01 -7.941380e-01    5.508242e-01 -7.941266e-01   -4.515086e-02  1.079027e-02
1.500000e+09   -1.721807e-02  3.056503e-03    5.394613e-01 -8.007658e-01    5.411032e-01 -8.008885e-01   -4.535172e-02  1.119924e-02
1.518750e+09   -1.719399e-02  2.883838e-03    5.296400e-01 -8.072743e-01    5.312932e-01 -8.075332e-01   -4.554852e-02  1.161568e-02
1.537500e+09   -1.717734e-02  2.709046e-03    5.197408e-01 -8.136623e-01    5.213955e-01 -8.140592e-01   -4.574105e-02  1.203954e-02
1.556250e+09   -1.716821e-02  2.532362e-03    5.097651e-01 -8.199292e-01    5.114115e-01 -8.204648e-01   -4.592914e-02  1.247076e-02
1.575000e+09   -1.716671e-02  2.354027e-03    4.997145e-01 -8.260740e-01    5.013425e-01 -8.267483e-01   -4.611259e-02  1.290928e-02
1.593750e+09   -1.717289e-02  2.174282e-03    4.895904e-01 -8.320957e-01    4.911900e-01 -8.329084e-01   -4.629121e-02  1.335505e-02
1.612500e+09   -1.718683e-02  1.993373e-03    4.793942e-01 -8.379936e-01    4.809556e-01 -8.389433e-01   -4.646482e-02  1.380799e-02
1.631250e+09   -1.720860e-02  1.811546e-03    4.691276e-01 -8.437668e-01    4.706409e-01 -8.448517e-01   -4.663323e-02  1.426803e-02
1.650000e+09   -1.723824e-02  1.629052e-03    4.587920e-01 -8.494145e-01    4.602476e-01 -8.506318e-01   -4.679625e-02  1.473511e-02
1.668750e+09   -1.727581e-02  1.446141e-03    4.483890e-01 -8.549360e-01    4.497773e-01 -8.562824e-01   -4.695370e-02  1.520912e-02
1.687500e+09   -1.732134e-02  1.263067e-03    4.379200e-01 -8.603303e-01    4.392318e-01 -8.618019e-01   -4.710540e-02  1.569000e-02
1.706250e+09   -1.737487e-02  1.080084e-03    4.273867e-01 -8.655968e-01    4.286130e-01 -8.671890e-01   -4.725116e-02  1.617764e-02
1.725000e+09   -1.743641e-02  8.974472e-04    4.167906e-01 -8.707346e-01    4.179227e-01 -8.724422e-01   -4.739080e-02  1.667194e-02
1.743750e+09   -1.750599e-02  7.154129e-04    4.061331e-01 -8.757432e-01    4.071628e-01 -8.775603e-01   -4.752414e-02  1.717282e-02
1.762500e+09   -1.758360e-02  5.342381e-04    3.954160e-01 -8.806217e-01    3.963354e-01 -8.825420e-01   -4.765100e-02  1.768015e-02
1.781250e+09   -1.766925e-02  3.541800e-04    3.846407e-01 -8.853695e-01    3.854424e-01 -8.873861e-01   -4.777121e-02  1.819383e-02
1.800000e+09   -1.776293e-02  1.754959e-04    3.738089e-01 -8.899859e-01    3.744860e-01 -8.920914e-01   -4.788460e-02  1.871374e-02
1.818750e+09   -1.786461e-02 -1.556953e-06    3.629221e-01 -8.944702e-01    3.634681e-01 -8.966567e-01   -4.799099e-02  1.923976e-02
1.837500e+09   -1.797429e-02 -1.767217e-04    3.519819e-01 -8.988219e-01    3.523911e-01 -9.010811e-01   -4.809022e-02  1.977176e-02
1.856250e+09   -1.809191e-02 -3.497424e-04    3.409899e-01 -9.030402e-01    3.412570e-01 -9.053636e-01   -4.818211e-02  2.030961e-02
1.875000e+09   -1.821745e-02 -5.203635e-04    3.299477e-01 -9.071247e-01    3.300680e-01 -9.095031e-01   -4.826651e-02  2.085319e-02
1.893750e+09   -1.835085e-02 -6.883312e-04    3.188570e-01 -9.110746e-01    3.188264e-01 -9.134989e-01   -4.834327e-02  2.140234e-02
1.912500e+09   -1.849205e-02 -8.533926e-04    3.077193e-01 -9.148895e-01    3.075345e-01 -9.173501e-01   -4.841221e-02  2.195692e-02
1.931250e+09   -1.864099e-02 -1.015297e-03    2.965363e-01 -9.185688e-01    2.961945e-01 -9.210560e-01   -4.847320e-02  2.251679e-02
1.950000e+09   -1.879760e-02 -1.173794e-03    2.853096e-01 -9.221120e-01    2.848087e-01 -9.246160e-01   -4.852607e-02  2.308179e-02
1.968750e+09   -1.896179e-02 -1.328638e-03    2.740408e-01 -9.255186e-01    2.733794e-01 -9.280293e-01   -4.857069e-02  2.365177e-02
1.987500e+09   -1.913349e-02 -1.479584e-03    2.627316e-01 -9.287880e-01    2.619089e-01 -9.312955e-01   -4.860692e-02  2.422657e-02
2.006250e+09   -1.931258e-02 -1.626388e-03    2.513837e-01 -9.319199e-01    2.503996e-01 -9.344141e-01   -4.863461e-02  2.480602e-02
2.025000e+09   -1.949898e-02 -1.768813e-03    2.399986e-01 -9.349137e-01    2.388538e-01 -9.373847e-01   -4.865364e-02  2.538996e-02
2.043750e+09   -1.969256e-02 -1.906622e-03    2.285780e-01 -9.377691e-01    2.272737e-01 -9.402070e-01   -4.866387e-02  2.597821e-02
2.062500e+09   -1.989322e-02 -2.039582e-03    2.171236e-01 -9.404856e-01    2.156618e-01 -9.428806e-01   -4.866518e-02  2.657060e-02
2.081250e+09   -2.010082e-02 -2.167462e-03    2.056371e-01 -9.430628e-01    2.040202e-01 -9.454054e-01   -4.865745e-02  2.716696e-02
2.100000e+09   -2.031524e-02 -2.290037e-03    1.941201e-01 -9.455004e-01    1.923513e-01 -9.477812e-01   -4.864056e-02  2.776711e-02
2.118750e+09   -2.053633e-02 -2.407086e-03    1.825743e-01 -9.477980e-01    1.806574e-01 -9.500079e-01   -4.861441e-02  2.837085e-02
2.137500e+09   -2.076396e-02 -2.518390e-03    1.710013e-01 -9.499553e-01    1.689407e-01 -9.520855e-01   -4.857888e-02  2.897802e-02
2.156250e+09   -2.099796e-02 -2.623735e-03    1.594030e-01 -9.519720e-01    1.572034e-01 -9.540141e-01   -4.853387e-02  2.958841e-02
2.175000e+09   -2.123819e-02 -2.722912e-03    1.477808e-01 -9.538477e-01    1.454477e-01 -9.557937e-01   -4.847928e-02  3.020185e-02
2.193750e+09   -2.148447e-02 -2.815718e-03    1.361366e-01 -9.555821e-01    1.336758e-01 -9.574244e-01   -4.841503e-02  3.081814e-02
2.212500e+09   -2.173663e-02 -2.901952e-03    1.244720e-01 -9.571751e-01    1.218899e-01 -9.589065e-01   -4.834102e-02  3.143709e-02
2.231250e+09   -2.199450e-02 -2.981419e-03    1.127887e-01 -9.586264e-01    1.100921e-01 -9.602402e-01   -4.825716e-02  3.205850e-02
2.250000e+09   -2.225789e-02 -3.053931e-03    1.010884e-01 -9.599358e-01    9.828435e-02 -9.614257e-01   -4.816339e-02  3.268217e-02
2.268750e+09   -2.252662e-02 -3.119305e-03    8.937277e-02 -9.611030e-01    8.646881e-02 -9.624634e-01   -4.805962e-02  3.330791e-02
2.287500e+09   -2.280049e-02 -3.177360e-03    7.764358e-02 -9.621279e-01    7.464746e-02 -9.633536e-01   -4.794579e-02  3.393552e-02
2.306250e+09   -2.307931e-02 -3.227925e-03    6.590250e-02 -9.630103e-01    6.282224e-02 -9.640968e-01   -4.782182e-02  3.456480e-02
2.325000e+09   -2.336285e-02 -3.270834e-03    5.415123e-02 -9.637500e-01    5.099509e-02 -9.646933e-01   -4.768766e-02  3.519554e-02
2.343750e+09   -2.365092e-02 -3.305925e-03    4.239148e-02 -9.643471e-01    3.916788e-02 -9.651437e-01   -4.754326e-02  3.582755e-02
2.362500e+09   -2.394331e-02 -3.333045e-03    3.062497e-02 -9.648013e-01    2.734246e-02 -9.654484e-01   -4.738855e-02  3.646062e-02
2.381250e+09   -2.423978e-02 -3.352044e-03    1.885340e-02 -9.651125e-01    1.552062e-02 -9.656078e-01   -4.722349e-02  3.709455e-02
2.400000e+09   -2.454012e-02 -3.362782e-03    7.078489e-03 -9.652808e-01    3.704128e-03 -9.656226e-01   -4.704804e-02  3.772913e-02
2.418750e+09   -2.484410e-02 -3.365123e-03   -4.698054e-03 -9.653060e-01   -8.105310e-03 -9.654933e-01   -4.686216e-02  3.836416e-02
2.437500e+09   -2.515149e-02 -3.358939e-03   -1.647451e-02 -9.651882e-01   -1.990602e-02 -9.652204e-01   -4.666582e-02  3.899943e-02
2.456250e+09   -2.546205e-02 -3.344108e-03   -2.824917e-02 -9.649273e-01   -3.169636e-02 -9.648045e-01   -4.645897e-02  3.963475e-02
2.475000e+09   -2.577554e-02 -3.320515e-03   -4.002032e-02 -9.645233e-01   -4.347474e-02 -9.642462e-01   -4.624161e-02  4.026990e-02
2.493750e+09   -2.609172e-02 -3.288053e-03   -5.178623e-02 -9.639763e-01   -5.523960e-02 -9.635460e-01   -4.601369e-02  4.090467e-02
2.512500e+09   -2.641035e-02 -3.246621e-03   -6.354519e-02 -9.632863e-01   -6.698943e-02 -9.627046e-01   -4.577522e-02  4.153887e-02
2.531250e+09   -2.673116e-02 -3.196126e-03   -7.529549e-02 -9.624535e-01   -7.872274e-02 -9.617224e-01   -4.552616e-02  4.217228e-02
2.550000e+09   -2.705392e-02 -3.136481e-03   -8.703541e-02 -9.614779e-01   -9.043807e-02 -9.606002e-01   -4.526651e-02  4.280471e-02
2.568750e+09   -2.737836e-02 -3.067608e-03   -9.876324e-02 -9.603595e-01   -1.021340e-01 -9.593383e-01   -4.499627e-02  4.343594e-02
2.587500e+09   -2.770423e-02 -2.989435e-03   -1.104772e-01 -9.590987e-01   -1.138092e-01 -9.579375e-01   -4.471543e-02  4.406577e-02
2.606250e+09   -2.803127e-02 -2.901898e-03   -1.221757e-01 -9.576954e-01   -1.254622e-01 -9.563983e-01   -4.442398e-02  4.469399e-02
2.625000e+09   -2.835922e-02 -2.804941e-03   -1.338570e-01 -9.561499e-01   -1.370918e-01 -9.547211e-01   -4.412194e-02  4.532041e-02
2.643750e+09   -2.868782e-02 -2.698514e-03   -1.455193e-01 -9.544624e-01   -1.486966e-01 -9.529066e-01   -4.380932e-02  4.594481e-02
2.662500e+09   -2.901680e-02 -2.582577e-03   -1.571609e-01 -9.526330e-01   -1.602752e-01 -9.509552e-01   -4.348612e-02  4.656698e-02
2.681250e+09   -2.934589e-02 -2.457096e-03   -1.687802e-01 -9.506621e-01   -1.718266e-01 -9.488675e-01   -4.315235e-02  4.718673e-02
2.700000e+09   -2.967484e-02 -2.322044e-03   -1.803754e-01 -9.485499e-01   -1.833493e-01 -9.466439e-01   -4.280805e-02  4.780386e-02
2.718750e+09   -3.000337e-02 -2.177404e-03   -1.919448e-01 -9.462966e-01   -1.948422e-01 -9.442850e-01   -4.245323e-02  4.841814e-02
2.737500e+09   -3.033122e-02 -2.023164e-03   -2.034868e-01 -9.439026e-01   -2.063040e-01 -9.417911e-01   -4.208791e-02  4.902939e-02
2.756250e+09   -3.065812e-02 -1.859321e-03   -2.149995e-01 -9.413681e-01   -2.177335e-01 -9.391626e-01   -4.171213e-02  4.963740e-02
2.775000e+09   -3.098380e-02 -1.685881e-03   -2.264814e-01 -9.386935e-01   -2.291295e-01 -9.364001e-01   -4.132592e-02  5.024196e-02
2.793750e+09   -3.130799e-02 -1.502855e-03   -2.379307e-01 -9.358792e-01   -2.404908e-01 -9.335040e-01   -4.092931e-02  5.084287e-02
