# GHz S MA R 50

1.000000000000000e-02  8.1929053763138537e-03  1.5297048198939642e+01  9.9905977305581151e-01 -6.2207762769116237e-01  9.9905977305581140e-01 -6.2207762769116237e-01  2.2516919211199140e-03  1.6592721767392143e+02
2.000000000000000e-02  7.6503878701813886e-03  2.3426025368097614e+00  9.9953621840818574e-01 -1.1953892234356323e+00  9.9953621840818585e-01 -1.1953892234356323e+00  2.4463818712204847e-03  1.5919194772755327e+02
3.000000000000000e-02  7.3309493428150071e-03  1.2475758674247087e+01  9.9929065999640487e-01 -1.7763936635910582e+00  9.9929065999640465e-01 -1.7763936635910582e+00  2.4171614369631485e-03  1.4457535504252920e+02
4.000000000000000e-02  7.5774280621405980e-03  1.2940234769379186e+01  9.9914449088768509e-01 -2.3615022514494104e+00  9.9914449088768509e-01 -2.3615022514494113e+00  2.9657807885468692e-03  1.3786665609965135e+02
5.000000000000000e-02  7.7828228174933768e-03  1.7786791803438433e+01  9.9894488123552838e-01 -2.9455025173210196e+00  9.9894488123552849e-01 -2.9455025173210201e+00  2.9714403785862926e-03  1.3143133057171102e+02
6.000000000000000e-02  7.8429808820482116e-03  1.9172122199228639e+01  9.9885822373629529e-01 -3.5232365372608228e+00  9.9885822373629518e-01 -3.5232365372608228e+00  3.4294114121832743e-03  1.2389449612297753e+02
7.000000000000001e-02  8.2084271185436028e-03  2.3994406879727119e+01  9.9867210819505758e-01 -4.1027304290025901e+00  9.9867210819505770e-01 -4.1027304290025910e+00  3.6155284738524809e-03  1.1680867928623437e+02
8.000000000000000e-02  8.5284222136786016e-03  2.5263666820341964e+01  9.9860666459734571e-01 -4.6856151691442616e+00  9.9860666459734593e-01 -4.6856151691442607e+00  4.4234069828886363e-03  1.1212696236953525e+02
9.000000000000001e-02  8.9934521922637595e-03  2.7552917243695973e+01  9.9852368203080588e-01 -5.2731430893244520e+00  9.9852368203080555e-01 -5.2731430893244520e+00  4.6289436491546822e-03  1.1197204299629691e+02
1.000000000000000e-01  9.1468106842848944e-03  2.7782693259461880e+01  9.9832256861477819e-01 -5.8562148227076571e+00  9.9832256861477831e-01 -5.8562148227076554e+00  5.1479849542669862e-03  1.0683974324387590e+02
1.100000000000000e-01  9.4177175686163336e-03  3.0292088321348814e+01  9.9822845340472233e-01 -6.4345803610486563e+00  9.9822845340472188e-01 -6.4345803610486572e+00  5.5118896070564692e-03  1.0615350876343921e+02
1.200000000000000e-01  9.6647895453896068e-03  3.1672449179423943e+01  9.9812142832992401e-01 -7.0125101603607689e+00  9.9812142832992390e-01 -7.0125101603607689e+00  5.9870472917201772e-03  1.0291543024547778e+02
1.300000000000000e-01  1.0146685757218755e-02  3.3218544442270193e+01  9.9805674477165840e-01 -7.5909289780868017e+00  9.9805674477165862e-01 -7.5909289780868052e+00  6.3437529714339760e-03  1.0237904869582236e+02
1.400000000000000e-01  1.0300713127771258e-02  3.3224043293127615e+01  9.9795101372901884e-01 -8.1681352212488374e+00  9.9795101372901873e-01 -8.1681352212488374e+00  6.7253479880547062e-03  9.9705326856564611e+01
1.500000000000000e-01  1.0540048158719765e-02  3.5027791239216164e+01  9.9790139301331682e-01 -8.7441416536276169e+00  9.9790139301331660e-01 -8.7441416536276169e+00  7.0645344303424508e-03  9.8368144913713721e+01
1.600000000000000e-01  1.0753059470095654e-02  3.6048713015637404e+01  9.9778870431150168e-01 -9.3196761044999281e+00  9.9778870431150191e-01 -9.3196761044999281e+00  7.4909820425483704e-03  9.5740113317479526e+01
1.700000000000000e-01  1.1094667867582467e-02  3.7578087615092713e+01  9.9769192825738484e-01 -9.8953146718545231e+00  9.9769192825738506e-01 -9.8953146718545231e+00  7.8810766122401968e-03  9.4331460616130428e+01
1.800000000000000e-01  1.1337468809971515e-02  3.8604724300591016e+01  9.9764168678809828e-01 -1.0471518270965928e+01  9.9764168678809828e-01 -1.0471518270965927e+01  8.3764782127005721e-03  9.2202500982191694e+01
1.900000000000000e-01  1.1770366444141570e-02  3.9838180324805016e+01  9.9754972918381923e-01 -1.1049401792800264e+01  9.9754972918381957e-01 -1.1049401792800264e+01  8.7835854439947229e-03  9.1283055533488721e+01
2.000000000000000e-01  1.2002762658537313e-02  4.0221459865461760e+01  9.9742521075560642e-01 -1.1627757321219820e+01  9.9742521075560620e-01 -1.1627757321219823e+01  9.2569935523122791e-03  8.9410050684831219e+01
2.100000000000000e-01  1.2305543826295878e-02  4.1611735235265563e+01  9.9738558179602188e-01 -1.2206102956638857e+01  9.9738558179602199e-01 -1.2206102956638849e+01  9.6903640849228378e-03  8.8533380048365174e+01
2.200000000000000e-01  1.2654027136038165e-02  4.2598155470681377e+01  9.9725857404250651e-01 -1.2782776335101483e+01  9.9725857404250651e-01 -1.2782776335101481e+01  1.0166403774706741e-02  8.7043374355602893e+01
2.300000000000000e-01  1.3093733537140361e-02  4.3418026322308279e+01  9.9720202561325655e-01 -1.3360650902420154e+01  9.9720202561325644e-01 -1.3360650902420154e+01  1.0589534969715040e-02  8.6182984775534067e+01
2.400000000000000e-01  1.3477617975353512e-02  4.3913182886070636e+01  9.9711454785460873e-01 -1.3938593526651017e+01  9.9711454785460907e-01 -1.3938593526651015e+01  1.1094687540963984e-02  8.4923257615575025e+01
2.500000000000000e-01  1.3824155812705503e-02  4.3844716259228036e+01  9.9704212283206506e-01 -1.4515635540765544e+01  9.9704212283206539e-01 -1.4515635540765544e+01  1.1506693670672030e-02  8.4286379896407865e+01
2.600000000000000e-01  1.3912833480088456e-02  4.4973139650321443e+01  9.9701903044085460e-01 -1.5091290268318010e+01  9.9701903044085449e-01 -1.5091290268318009e+01  1.2002610636895282e-02  8.3330115969406449e+01
2.700000000000000e-01  1.4481282005819805e-02  4.6027064185809586e+01  9.9691949906393162e-01 -1.5664160324802866e+01  9.9691949906393185e-01 -1.5664160324802861e+01  1.2316607051520873e-02  8.2913926435332243e+01
2.800000000000000e-01  1.4783157830425001e-02  4.6294768983201948e+01  9.9683578208234258e-01 -1.6236323960525219e+01  9.9683578208234236e-01 -1.6236323960525223e+01  1.2739532346018491e-02  8.1616516919285274e+01
2.900000000000000e-01  1.5284948690082690e-02  4.6971335003501345e+01  9.9677513767773418e-01 -1.6809815730634249e+01  9.9677513767773418e-01 -1.6809815730634252e+01  1.3063200413453895e-02  8.1085076137197632e+01
3.000000000000000e-01  1.5627581313796855e-02  4.7045219212024406e+01  9.9668963856700177e-01 -1.7384550125734208e+01  9.9668963856700166e-01 -1.7384550125734211e+01  1.3454478089230917e-02  7.9642371372488739e+01
3.100000000000000e-01  1.6048762935939362e-02  4.7352457000997198e+01  9.9659183578607025e-01 -1.7958811440244244e+01  9.9659183578607047e-01 -1.7958811440244247e+01  1.3797418243303734e-02  7.8975163223936391e+01
3.200000000000000e-01  1.6296121049767721e-02  4.7668981120556239e+01  9.9648423008243558e-01 -1.8531125834035930e+01  9.9648423008243558e-01 -1.8531125834035933e+01  1.4143369790269006e-02  7.7306454484957257e+01
3.300000000000000e-01  1.6782062267763666e-02  4.8344909854362939e+01  9.9639354510500122e-01 -1.9110961180471438e+01  9.9639354510500144e-01 -1.9110961180471438e+01  1.4635090391852654e-02  7.6171964087384382e+01
3.400000000000000e-01  1.7167840907808915e-02  4.8536985169130723e+01  9.9633813584353004e-01 -1.9686083525497665e+01  9.9633813584353004e-01 -1.9686083525497665e+01  1.5109036884424696e-02  7.5112259961651716e+01
3.500000000000000e-01  1.7659067119969864e-02  4.8856870880776640e+01  9.9625891387067589e-01 -2.0263567188450779e+01  9.9625891387067611e-01 -2.0263567188450772e+01  1.5545076952679305e-02  7.4189803802515456e+01
3.600000000000000e-01  1.8048455361179425e-02  4.8986929548924529e+01  9.9616029854854804e-01 -2.0839827456474097e+01  9.9616029854854837e-01 -2.0839827456474090e+01  1.6052121651253314e-02  7.3207844747814519e+01
3.700000000000000e-01  1.8559055834162917e-02  4.9124125536142998e+01  9.9608063587573836e-01 -2.1416114773575497e+01  9.9608063587573836e-01 -2.1416114773575497e+01  1.6460966560575684e-02  7.2437430411426689e+01
3.800000000000000e-01  1.8951420691442275e-02  4.9144058551741679e+01  9.9596363454602166e-01 -2.1990871432518915e+01  9.9596363454602177e-01 -2.1990871432518915e+01  1.6981061762649886e-02  7.1417097895514019e+01
3.900000000000000e-01  1.9442075202151722e-02  4.8970241414244313e+01  9.9589845777446007e-01 -2.2566406581094981e+01  9.9589845777446007e-01 -2.2566406581094981e+01  1.7422230053048833e-02  7.0805640304040580e+01
4.000000000000000e-01  1.9662149393791638e-02  4.9172430465134426e+01  9.9586162934795253e-01 -2.3140610588280484e+01  9.9586162934795253e-01 -2.3140610588280484e+01  1.7926581058451570e-02  6.9979246502645125e+01
4.100000000000000e-01  2.0311895581264432e-02  4.9563793649062887e+01  9.9575679293200148e-01 -2.3716315223926394e+01  9.9575679293200148e-01 -2.3716315223926394e+01  1.8332803265796862e-02  6.9433563048107416e+01
4.200000000000000e-01  2.0726275573875241e-02  4.9166708787684868e+01  9.9564357484030075e-01 -2.4289351406119550e+01  9.9564357484030075e-01 -2.4289351406119550e+01  1.8804474942434788e-02  6.8585157988102537e+01
4.300000000000000e-01  2.1265988042816878e-02  4.9202354800687566e+01  9.9557461682504356e-01 -2.4866370831046094e+01  9.9557461682504356e-01 -2.4866370831046098e+01  1.9227267363343018e-02  6.7990449178038944e+01
4.400000000000000e-01  2.1677416149880113e-02  4.8770265862412380e+01  9.9548926897491574e-01 -2.5440984709845655e+01  9.9548926897491563e-01 -2.5440984709845651e+01  1.9718485740685514e-02  6.7278166970150068e+01
4.500000000000000e-01  2.2162020515994155e-02  4.8608894609084565e+01  9.9540296722107124e-01 -2.6016234495580839e+01  9.9540296722107113e-01 -2.6016234495580839e+01  2.0110415067030291e-02  6.6761848540945323e+01
4.600000000000000e-01  2.2526223477189879e-02  4.8201737363198220e+01  9.9533111266868335e-01 -2.6591010653510512e+01  9.9533111266868324e-01 -2.6591010653510505e+01  2.0595455838223576e-02  6.6121803313413110e+01
4.700000000000000e-01  2.2992035391242709e-02  4.7957750898806289e+01  9.9524398656368074e-01 -2.7166194062529573e+01  9.9524398656368063e-01 -2.7166194062529573e+01  2.0940479567632612e-02  6.5723000363772940e+01
4.800000000000000e-01  2.3282019713711716e-02  4.7522372846035587e+01  9.9513199362127813e-01 -2.7740671944887136e+01  9.9513199362127802e-01 -2.7740671944887143e+01  2.1354157627889524e-02  6.5065570910875962e+01
4.900000000000000e-01  2.3724452883735613e-02  4.7349696732670814e+01  9.9504846936669700e-01 -2.8314717582410172e+01  9.9504846936669700e-01 -2.8314717582410172e+01  2.1660753114431792e-02  6.4549072867476951e+01
5.000000000000000e-01  2.3939935378729408e-02  4.6864443329006484e+01  9.9495975560658279e-01 -2.8888642851862155e+01  9.9495975560658301e-01 -2.8888642851862155e+01  2.2085679109522829e-02  6.3869437374965919e+01
5.100000000000000e-01  2.4326370542028772e-02  4.7119862244715776e+01  9.9497793324316797e-01 -2.9463227280633866e+01  9.9497793324316786e-01 -2.9463227280633877e+01  2.2348962258727550e-02  6.3444448960255492e+01
5.200000000000000e-01  2.4783566033751182e-02  4.6680233598618301e+01  9.9489321718799839e-01 -3.0038713581597630e+01  9.9489321718799828e-01 -3.0038713581597634e+01  2.2700068091735592e-02  6.2651827823604002e+01
5.300000000000000e-01  2.5125598150555050e-02  4.6347435906867553e+01  9.9480918231952198e-01 -3.0613874022217622e+01  9.9480918231952198e-01 -3.0613874022217622e+01  2.2951229218396707e-02  6.2049564505865682e+01
5.400000000000000e-01  2.5402036476648061e-02  4.6014875239306853e+01  9.9472797557074011e-01 -3.1189124254971130e+01  9.9472797557074000e-01 -3.1189124254971119e+01  2.3308201815564398e-02  6.1179081302652214e+01
5.500000000000000e-01  2.5712336706228269e-02  4.5878064767062448e+01  9.9463157634190613e-01 -3.1764634901654901e+01  9.9463157634190658e-01 -3.1764634901654901e+01  2.3558560607881827e-02  6.0498326750734385e+01
5.600000000000001e-01  2.5999895082864238e-02  4.5832184305463791e+01  9.9452300305710295e-01 -3.2339356308038298e+01  9.9452300305710317e-01 -3.2339356308038298e+01  2.3933798088364336e-02  5.9540307151337686e+01
5.700000000000001e-01  2.6503973827572469e-02  4.5743644629081182e+01  9.9445027624329918e-01 -3.2913301806818232e+01  9.9445027624329907e-01 -3.2913301806818225e+01  2.4224043169177683e-02  5.8855679180182044e+01
5.800000000000001e-01  2.6843845546333924e-02  4.5285598497126351e+01  9.9433613427573087e-01 -3.3487158489086099e+01  9.9433613427573109e-01 -3.3487158489086085e+01  2.4603623403348516e-02  5.7966718606658993e+01
5.900000000000001e-01  2.7242953709008498e-02  4.4988114433889180e+01  9.9425572835996279e-01 -3.4061543739924439e+01  9.9425572835996301e-01 -3.4061543739924431e+01  2.4871406767880935e-02  5.7274542722189921e+01
6.000000000000001e-01  2.7450154543032922e-02  4.4524119189163301e+01  9.9415553038869164e-01 -3.4635296343809912e+01  9.9415553038869164e-01 -3.4635296343809927e+01  2.5243293914122680e-02  5.6328629084350077e+01
6.100000000000000e-01  2.7782804057325253e-02  4.4467559497772861e+01  9.9405231146537165e-01 -3.5208936987515905e+01  9.9405231146537187e-01 -3.5208936987515905e+01  2.5532039186177323e-02  5.5556045436841742e+01
6.200000000000000e-01  2.8025323993135245e-02  4.4061184709603602e+01  9.9396863555655113e-01 -3.5781956651928652e+01  9.9396863555655113e-01 -3.5781956651928652e+01  2.5958571125583838e-02  5.4627159679853627e+01
6.300000000000000e-01  2.8282106760487806e-02  4.4135112565509722e+01  9.9398302265671490e-01 -3.6354019887253337e+01  9.9398302265671468e-01 -3.6354019887253330e+01  2.6260349539670141e-02  5.3973442875327187e+01
6.400000000000000e-01  2.8641078581752889e-02  4.4050695142821922e+01  9.9391088740749489e-01 -3.6927790663563009e+01  9.9391088740749511e-01 -3.6927790663563023e+01  2.6664576623355203e-02  5.3052963252238484e+01
6.500000000000000e-01  2.9067681204842957e-02  4.3873594807384734e+01  9.9382081186933779e-01 -3.7502623152933154e+01  9.9382081186933779e-01 -3.7502623152933154e+01  2.6989497084442912e-02  5.2386090280064650e+01
6.600000000000000e-01  2.9333906763705994e-02  4.3584369217346875e+01  9.9375114722311664e-01 -3.8076128684533622e+01  9.9375114722311642e-01 -3.8076128684533622e+01  2.7386875181391750e-02  5.1540567350677705e+01
6.700000000000000e-01  2.9752280463321283e-02  4.3578250568638083e+01  9.9364257708006232e-01 -3.8649780570187275e+01  9.9364257708006232e-01 -3.8649780570187275e+01  2.7701481890662870e-02  5.0859376701394659e+01
6.800000000000000e-01  3.0117656716645458e-02  4.3192965938105196e+01  9.9355719846820423e-01 -3.9224025567075266e+01  9.9355719846820412e-01 -3.9224025567075273e+01  2.8111443764835042e-02  5.0057586205503199e+01
6.900000000000001e-01  3.0503391124908574e-02  4.3027718493434449e+01  9.9348177793754766e-01 -3.9797060781941326e+01  9.9348177793754788e-01 -3.9797060781941319e+01  2.8407666649105243e-02  4.9432459716632010e+01
7.000000000000001e-01  3.0836980109500461e-02  4.2600737405701629e+01  9.9336065833439458e-01 -4.0371312951185040e+01  9.9336065833439458e-01 -4.0371312951185040e+01  2.8782731177286431e-02  4.8651897044615417e+01
7.100000000000001e-01  3.1154642663910877e-02  4.2406085333174353e+01  9.9326669863887573e-01 -4.0945144125218938e+01  9.9326669863887573e-01 -4.0945144125218938e+01  2.9045264321306719e-02  4.7969022196976908e+01
7.200000000000001e-01  3.1470300188336672e-02  4.2144430885037842e+01  9.9315860323224492e-01 -4.1518793933417697e+01  9.9315860323224514e-01 -4.1518793933417705e+01  2.9440461176825822e-02  4.7134390469135795e+01
7.300000000000001e-01  3.1881505396611907e-02  4.1937064638301329e+01  9.9306172886488897e-01 -4.2091580209317108e+01  9.9306172886488919e-01 -4.2091580209317115e+01  2.9717434282024200e-02  4.6504547955756045e+01
7.400000000000000e-01  3.2173465775077105e-02  4.1526142371963282e+01  9.9296255056996197e-01 -4.2664562349133980e+01  9.9296255056996174e-01 -4.2664562349133980e+01  3.0074819776661748e-02  4.5687224110695290e+01
7.500000000000000e-01  3.2542540343280295e-02  4.1350211320246842e+01  9.9290133832522220e-01 -4.3238403872662431e+01  9.9290133832522232e-01 -4.3238403872662431e+01  3.0358409428530186e-02  4.4991303986793682e+01
7.600000000000000e-01  3.2829400997362798e-02  4.0926004935708839e+01  9.9283502293972425e-01 -4.3812549277902455e+01  9.9283502293972403e-01 -4.3812549277902455e+01  3.0739555401683761e-02  4.4232207531739370e+01
7.700000000000000e-01  3.3151903644145518e-02  4.0815271715113489e+01  9.9273867870947308e-01 -4.4385398517922752e+01  9.9273867870947308e-01 -4.4385398517922752e+01  3.0971730272646492e-02  4.3570429163326459e+01
7.800000000000000e-01  3.3495514091595562e-02  4.0499993995650023e+01  9.9267128712634967e-01 -4.4956799039573347e+01  9.9267128712634922e-01 -4.4956799039573355e+01  3.1318103227216121e-02  4.2729028082540168e+01
7.900000000000000e-01  3.3900828326400123e-02  4.0337540709322639e+01  9.9259831981994151e-01 -4.5531476204863957e+01  9.9259831981994173e-01 -4.5531476204863949e+01  3.1573586458173118e-02  4.1976768749866139e+01
8.000000000000000e-01  3.4304735999557398e-02  3.9857343842288842e+01  9.9250841255674982e-01 -4.6103610613803994e+01  9.9250841255674993e-01 -4.6103610613803994e+01  3.1971802430012422e-02  4.1123351033462178e+01
8.100000000000001e-01  3.4632386558997759e-02  3.9442457734439643e+01  9.9243197481557521e-01 -4.6676606214563591e+01  9.9243197481557521e-01 -4.6676606214563591e+01  3.2248914642429384e-02  4.0440939182148831e+01
8.200000000000001e-01  3.4859626408789486e-02  3.8998274713330908e+01  9.9233142535501551e-01 -4.7249321132360407e+01  9.9233142535501540e-01 -4.7249321132360393e+01  3.2628804590011287e-02  3.9611395472776962e+01
8.300000000000001e-01  3.5152395119820781e-02  3.8787782392932684e+01  9.9222840372074228e-01 -4.7821381698516802e+01  9.9222840372074250e-01 -4.7821381698516788e+01  3.2915253013494371e-02  3.8903180513605875e+01
8.400000000000001e-01  3.5418682361875613e-02  3.8429740388288891e+01  9.9215806273733020e-01 -4.8394285998094489e+01  9.9215806273733020e-01 -4.8394285998094496e+01  3.3326313812378050e-02  3.8096235990789104e+01
8.500000000000001e-01  3.5756209815488355e-02  3.8258441067163808e+01  9.9205209311702292e-01 -4.8968569543903996e+01  9.9205209311702292e-01 -4.8968569543903996e+01  3.3643185195207793e-02  3.7450676068118035e+01
8.600000000000001e-01  3.6075085132504840e-02  3.7854744592659223e+01  9.9196261068923575e-01 -4.9542510005646676e+01  9.9196261068923575e-01 -4.9542510005646676e+01  3.4050229272740491e-02  3.6755821278001953e+01
8.700000000000001e-01  3.6403166714184365e-02  3.7614569787795396e+01  9.9187113119104697e-01 -5.0114599817096249e+01  9.9187113119104631e-01 -5.0114599817096249e+01  3.4317605320715622e-02  3.6207687817236121e+01
8.800000000000000e-01  3.6707084566957336e-02  3.7217345132070022e+01  9.9180086016340163e-01 -5.0686959630854126e+01  9.9180086016340163e-01 -5.0686959630854140e+01  3.4637692207768772e-02  3.5526308418668805e+01
8.900000000000000e-01  3.7053632230540590e-02  3.6962465744244390e+01  9.9172384441057515e-01 -5.1260831683408519e+01  9.9172384441057471e-01 -5.1260831683408519e+01  3.4872464726039248e-02  3.4898437858474196e+01
9.000000000000000e-01  3.7349681750791119e-02  3.6518818821332665e+01  9.9163844532446321e-01 -5.1833337348808172e+01  9.9163844532446355e-01 -5.1833337348808186e+01  3.5165313787395049e-02  3.4210672742491198e+01
9.100000000000000e-01  3.7685973121340526e-02  3.6259767762825270e+01  9.9153634647440747e-01 -5.2405894521990255e+01  9.9153634647440769e-01 -5.2405894521990255e+01  3.5362458091525585e-02  3.3481546760166083e+01
9.200000000000000e-01  3.7986355335496089e-02  3.5772888032670167e+01  9.9143170594676988e-01 -5.2977650375109732e+01  9.9143170594676999e-01 -5.2977650375109732e+01  3.5694078956590186e-02  3.2744867688040287e+01
9.300000000000000e-01  3.8289891718734759e-02  3.5475489278083685e+01  9.9135338439755072e-01 -5.3548987946753584e+01  9.9135338439755072e-01 -5.3548987946753584e+01  3.5887054413075541e-02  3.2023380529149790e+01
