# HZ S RI R 50
0.00000000000e+000 +0.00000000000e+000 +0.00000000000e+000 +1.00000000000e+000 +0.00000000000e+000 +1.00000000000e+000 +0.00000000000e+000 +0.00000000000e+000 +0.00000000000e+000
1.65625000000e+007 +7.77352236555e-003 +8.12225515460e-004 +9.99755261189e-001 -8.37335071181e-003 +9.99755261189e-001 -8.37335071181e-003 -2.27606408324e-003 +5.98896318012e-004
3.31250000000e+007 +7.20922509173e-003 +1.38879627407e-003 +9.99756970765e-001 -1.60953966355e-002 +9.99756970765e-001 -1.60953966355e-002 -2.11551593112e-003 +1.27219883224e-003
4.96875000000e+007 +7.37440754028e-003 +2.01204793662e-003 +9.99501774965e-001 -2.39369169086e-002 +9.99501774965e-001 -2.39369169086e-002 -2.09633765947e-003 +1.76740438256e-003
6.62500000000e+007 +7.41515986331e-003 +2.59075225659e-003 +9.99262338096e-001 -3.16060561353e-002 +9.99262338096e-001 -3.16060561353e-002 -1.96316343434e-003 +2.49687118641e-003
8.28125000000e+007 +7.70264246204e-003 +3.21400292076e-003 +9.99002390173e-001 -3.94012797347e-002 +9.99002390173e-001 -3.94012797347e-002 -2.04709223488e-003 +3.41535750521e-003
9.93750000000e+007 +7.96542613102e-003 +3.57676032767e-003 +9.98584096985e-001 -4.72505492080e-002 +9.98584096985e-001 -4.72505492080e-002 -2.01546922873e-003 +4.01561915318e-003
1.15937500000e+008 +8.03074233861e-003 +4.15220440338e-003 +9.98189106500e-001 -5.49087028052e-002 +9.98189106500e-001 -5.49087028052e-002 -2.09731858161e-003 +4.60002476464e-003
1.32500000000e+008 +8.31898155128e-003 +4.68222464840e-003 +9.97768796121e-001 -6.25577910819e-002 +9.97768796121e-001 -6.25577910819e-002 -2.16514302257e-003 +5.14849851574e-003
1.49062500000e+008 +8.37975415568e-003 +5.00743628345e-003 +9.97301151615e-001 -7.01591796280e-002 +9.97301151615e-001 -7.01591796280e-002 -2.09990985465e-003 +5.68273769683e-003
1.65625000000e+008 +8.44702498163e-003 +5.46509060247e-003 +9.96728486412e-001 -7.77258476897e-002 +9.96728486412e-001 -7.77258476897e-002 -1.96621134367e-003 +6.31496208577e-003
1.82187500000e+008 +8.53629364073e-003 +5.96506329343e-003 +9.96154118474e-001 -8.53123173604e-002 +9.96154118474e-001 -8.53123173604e-002 -1.87281840010e-003 +7.00506545916e-003
1.98750000000e+008 +8.72078455195e-003 +6.41503100311e-003 +9.95447472214e-001 -9.29414315933e-002 +9.95447472214e-001 -9.29414315933e-002 -1.81436255945e-003 +7.65664612486e-003
2.15312500000e+008 +8.76495150525e-003 +6.97375849358e-003 +9.94739840944e-001 -1.00561082529e-001 +9.94739840944e-001 -1.00561082529e-001 -1.79995191489e-003 +8.30924723770e-003
2.31875000000e+008 +8.97657959751e-003 +7.56438020211e-003 +9.93963502670e-001 -1.08166426706e-001 +9.93963502670e-001 -1.08166426706e-001 -1.77980794742e-003 +8.95686783606e-003
2.48437500000e+008 +9.27872786961e-003 +7.94931284745e-003 +9.93128153962e-001 -1.15763918546e-001 +9.93128153962e-001 -1.15763918546e-001 -1.78709544837e-003 +9.61604280382e-003
2.65000000000e+008 +9.21674549975e-003 +8.44687263495e-003 +9.92290144916e-001 -1.23287793426e-001 +9.92290144916e-001 -1.23287793426e-001 -1.83426151980e-003 +1.02266349502e-002
2.81562500000e+008 +9.42708490149e-003 +8.99853068702e-003 +9.91344390242e-001 -1.30727828259e-001 +9.91344390242e-001 -1.30727828259e-001 -1.78740217673e-003 +1.07646368777e-002
2.98125000000e+008 +9.69416387457e-003 +9.54304214364e-003 +9.90357208792e-001 -1.38209317517e-001 +9.90357208792e-001 -1.38209317517e-001 -1.71284334215e-003 +1.12661836356e-002
3.14687500000e+008 +9.91052809145e-003 +9.99558329815e-003 +9.89270296585e-001 -1.45667193494e-001 +9.89270296585e-001 -1.45667193494e-001 -1.59815457901e-003 +1.17599830232e-002
3.31250000000e+008 +1.00701290423e-002 +1.05837703974e-002 +9.88120977052e-001 -1.53212513851e-001 +9.88120977052e-001 -1.53212513851e-001 -1.37598965252e-003 +1.24244859659e-002
3.47812500000e+008 +1.03485832406e-002 +1.11380438211e-002 +9.86960790228e-001 -1.60731823780e-001 +9.86960790228e-001 -1.60731823780e-001 -1.26105759663e-003 +1.30944437884e-002
3.64375000000e+008 +1.06521054135e-002 +1.16691115295e-002 +9.85701299645e-001 -1.68240797594e-001 +9.85701299645e-001 -1.68240797594e-001 -1.16640987660e-003 +1.37880046120e-002
3.80937500000e+008 +1.09954393445e-002 +1.21737184064e-002 +9.84372204459e-001 -1.75705187863e-001 +9.84372204459e-001 -1.75705187863e-001 -1.06025566041e-003 +1.44928278085e-002
3.97500000000e+008 +1.12802416219e-002 +1.25765706118e-002 +9.83067705130e-001 -1.83162560660e-001 +9.83067705130e-001 -1.83162560660e-001 -1.04294885403e-003 +1.51764708795e-002
4.14062500000e+008 +1.16568331562e-002 +1.32502052242e-002 +9.81633757795e-001 -1.90592804192e-001 +9.81633757795e-001 -1.90592804192e-001 -1.04028422922e-003 +1.58050185464e-002
4.30625000000e+008 +1.21267083391e-002 +1.37640178684e-002 +9.80156913702e-001 -1.98034534829e-001 +9.80156913702e-001 -1.98034534829e-001 -1.01948868143e-003 +1.64459491247e-002
4.47187500000e+008 +1.26324618369e-002 +1.41453248435e-002 +9.78625755957e-001 -2.05447130614e-001 +9.78625755957e-001 -2.05447130614e-001 -1.03133970953e-003 +1.70939587124e-002
4.63750000000e+008 +1.31116322615e-002 +1.44714472356e-002 +9.77050138749e-001 -2.12852032222e-001 +9.77050138749e-001 -2.12852032222e-001 -1.07762624333e-003 +1.77223607949e-002
4.80312500000e+008 +1.35571475281e-002 +1.47199986715e-002 +9.75379138895e-001 -2.20229572840e-001 +9.75379138895e-001 -2.20229572840e-001 -1.12147937609e-003 +1.82651757285e-002
4.96875000000e+008 +1.39670193094e-002 +1.49763080990e-002 +9.73682708342e-001 -2.27579114269e-001 +9.73682708342e-001 -2.27579114269e-001 -1.14424867781e-003 +1.87605517878e-002
5.13437500000e+008 +1.42625108236e-002 +1.53868596476e-002 +9.72026175586e-001 -2.34957842404e-001 +9.72026175586e-001 -2.34957842404e-001 -1.18275139159e-003 +1.91821787554e-002
5.30000000000e+008 +1.47612420914e-002 +1.56525956904e-002 +9.70209590233e-001 -2.42317909455e-001 +9.70209590233e-001 -2.42317909455e-001 -1.13274576763e-003 +1.95774163120e-002
5.46562500000e+008 +1.50892558422e-002 +1.58580573600e-002 +9.68331165817e-001 -2.49664594267e-001 +9.68331165817e-001 -2.49664594267e-001 -1.00275362867e-003 +2.00211432783e-002
5.63125000000e+008 +1.53715968523e-002 +1.62105701967e-002 +9.66381387635e-001 -2.56974359988e-001 +9.66381387635e-001 -2.56974359988e-001 -8.30804933928e-004 +2.05001537293e-002
5.79687500000e+008 +1.58690522457e-002 +1.65295139699e-002 +9.64385845539e-001 -2.64246096104e-001 +9.64385845539e-001 -2.64246096104e-001 -6.83022993529e-004 +2.09931964277e-002
5.96250000000e+008 +1.63078521438e-002 +1.67150403222e-002 +9.62346168920e-001 -2.71512571004e-001 +9.62346168920e-001 -2.71512571004e-001 -5.32809810778e-004 +2.14311847540e-002
6.12812500000e+008 +1.66208853942e-002 +1.69433866778e-002 +9.60238459337e-001 -2.78742336090e-001 +9.60238459337e-001 -2.78742336090e-001 -3.43262988907e-004 +2.19091321144e-002
6.29375000000e+008 +1.68481102573e-002 +1.71710145475e-002 +9.58198252731e-001 -2.85959356580e-001 +9.58198252731e-001 -2.85959356580e-001 -1.97538863035e-004 +2.24268920815e-002
6.45937500000e+008 +1.72172750235e-002 +1.75642038067e-002 +9.56014316582e-001 -2.93182886944e-001 +9.56014316582e-001 -2.93182886944e-001 -1.01356950138e-005 +2.29748661590e-002
6.62500000000e+008 +1.75909042964e-002 +1.78358364498e-002 +9.53768913486e-001 -3.00380341219e-001 +9.53768913486e-001 -3.00380341219e-001 +1.52143912249e-004 +2.35142491884e-002
6.79062500000e+008 +1.80385528647e-002 +1.81801483519e-002 +9.51443226580e-001 -3.07555849046e-001 +9.51443226580e-001 -3.07555849046e-001 +2.97077141847e-004 +2.40533572786e-002
6.95625000000e+008 +1.84954343978e-002 +1.84638018200e-002 +9.49073855920e-001 -3.14702490919e-001 +9.49073855920e-001 -3.14702490919e-001 +4.00987085862e-004 +2.45292326909e-002
7.12187500000e+008 +1.89011436324e-002 +1.86961040496e-002 +9.46628006036e-001 -3.21835509858e-001 +9.46628006036e-001 -3.21835509858e-001 +5.44628139551e-004 +2.49752823248e-002
7.28750000000e+008 +1.93467345359e-002 +1.89979938563e-002 +9.44136212811e-001 -3.28930106061e-001 +9.44136212811e-001 -3.28930106061e-001 +6.89446343342e-004 +2.54613268588e-002
7.45312500000e+008 +1.98010430000e-002 +1.91931092681e-002 +9.41614054608e-001 -3.36015252456e-001 +9.41614054608e-001 -3.36015252456e-001 +8.72794028309e-004 +2.59416060758e-002
7.61875000000e+008 +2.02447877417e-002 +1.93736158727e-002 +9.39060660657e-001 -3.43109598970e-001 +9.39060660657e-001 -3.43109598970e-001 +1.03090088189e-003 +2.64375037366e-002
7.78437500000e+008 +2.06532688114e-002 +1.96472109933e-002 +9.36450240691e-001 -3.50127586496e-001 +9.36450240691e-001 -3.50127586496e-001 +1.21725832322e-003 +2.68578278592e-002
7.95000000000e+008 +2.11862274705e-002 +1.99477772983e-002 +9.33777638404e-001 -3.57168341934e-001 +9.33777638404e-001 -3.57168341934e-001 +1.44331098894e-003 +2.73086499002e-002
8.11562500000e+008 +2.17570133636e-002 +2.00562580709e-002 +9.31053006493e-001 -3.64161285237e-001 +9.31053006493e-001 -3.64161285237e-001 +1.63422592650e-003 +2.77871505032e-002
8.28125000000e+008 +2.21602931764e-002 +2.01567303756e-002 +9.28249359679e-001 -3.71113175583e-001 +9.28249359679e-001 -3.71113175583e-001 +1.85139454957e-003 +2.82854642421e-002
8.44687500000e+008 +2.25805886493e-002 +2.03187157191e-002 +9.25411968278e-001 -3.78076150961e-001 +9.25411968278e-001 -3.78076150961e-001 +2.05435438029e-003 +2.88458778609e-002
8.61250000000e+008 +2.30714404403e-002 +2.04922786386e-002 +9.22497567849e-001 -3.85028966160e-001 +9.22497567849e-001 -3.85028966160e-001 +2.18099066516e-003 +2.94025028409e-002
8.77812500000e+008 +2.35548165284e-002 +2.06545058824e-002 +9.19570034480e-001 -3.91922119990e-001 +9.19570034480e-001 -3.91922119990e-001 +2.25374138506e-003 +2.98337152841e-002
8.94375000000e+008 +2.40642978923e-002 +2.08160856259e-002 +9.16582304225e-001 -3.98823769554e-001 +9.16582304225e-001 -3.98823769554e-001 +2.36874857916e-003 +3.02153559652e-002
9.10937500000e+008 +2.45781556824e-002 +2.09563532209e-002 +9.13523568183e-001 -4.05668520216e-001 +9.13523568183e-001 -4.05668520216e-001 +2.55328555054e-003 +3.05588851621e-002
9.27500000000e+008 +2.51155511888e-002 +2.10135619468e-002 +9.10430236532e-001 -4.12468121649e-001 +9.10430236532e-001 -4.12468121649e-001 +2.75586147533e-003 +3.09573454725e-002
9.44062500000e+008 +2.56315843381e-002 +2.10387256369e-002 +9.07286878813e-001 -4.19257856804e-001 +9.07286878813e-001 -4.19257856804e-001 +2.98750480853e-003 +3.13829570789e-002
9.60625000000e+008 +2.61539622465e-002 +2.10491409206e-002 +9.04099433338e-001 -4.26036442920e-001 +9.04099433338e-001 -4.26036442920e-001 +3.22671200472e-003 +3.18462714784e-002
9.77187500000e+008 +2.66352360561e-002 +2.10453407003e-002 +9.00852188340e-001 -4.32794900538e-001 +9.00852188340e-001 -4.32794900538e-001 +3.45112045603e-003 +3.22256479488e-002
9.93750000000e+008 +2.70569461642e-002 +2.10224931917e-002 +8.97578323137e-001 -4.39542334138e-001 +8.97578323137e-001 -4.39542334138e-001 +3.67742555632e-003 +3.26761559920e-002
1.01031250000e+009 +2.73163813917e-002 +2.10963418391e-002 +8.94294752862e-001 -4.46310043227e-001 +8.94294752862e-001 -4.46310043227e-001 +3.89141717525e-003 +3.31073050117e-002
1.02687500000e+009 +2.78526177217e-002 +2.12305900591e-002 +8.90865922383e-001 -4.52990888249e-001 +8.90865922383e-001 -4.52990888249e-001 +4.08671805409e-003 +3.36153175324e-002
1.04343750000e+009 +2.84046484662e-002 +2.12825066792e-002 +8.87412781899e-001 -4.59647198592e-001 +8.87412781899e-001 -4.59647198592e-001 +4.22834691207e-003 +3.40927732238e-002
1.06000000000e+009 +2.89562320665e-002 +2.12827390118e-002 +8.83890385648e-001 -4.66278369236e-001 +8.83890385648e-001 -4.66278369236e-001 +4.36686034091e-003 +3.45532915213e-002
1.07656250000e+009 +2.94652433421e-002 +2.12655601423e-002 +8.80334917931e-001 -4.72857764049e-001 +8.80334917931e-001 -4.72857764049e-001 +4.48860242967e-003 +3.49180786231e-002
1.09312500000e+009 +2.99911891351e-002 +2.12209281259e-002 +8.76738833283e-001 -4.79411953013e-001 +8.76738833283e-001 -4.79411953013e-001 +4.60537582047e-003 +3.52847658203e-002
1.10968750000e+009 +3.04560566802e-002 +2.11333822914e-002 +8.73108034292e-001 -4.85953502618e-001 +8.73108034292e-001 -4.85953502618e-001 +4.70343298474e-003 +3.56119451188e-002
1.12625000000e+009 +3.09606379355e-002 +2.10228593746e-002 +8.69449860595e-001 -4.92466806956e-001 +8.69449860595e-001 -4.92466806956e-001 +4.82139495341e-003 +3.59476160687e-002
1.14281250000e+009 +3.14535047217e-002 +2.09027987871e-002 +8.65728893621e-001 -4.98934763848e-001 +8.65728893621e-001 -4.98934763848e-001 +4.96291997512e-003 +3.62254350779e-002
1.15937500000e+009 +3.19132677498e-002 +2.07711174587e-002 +8.61945605610e-001 -5.05389665687e-001 +8.61945605610e-001 -5.05389665687e-001 +5.15886424343e-003 +3.65222049029e-002
1.17593750000e+009 +3.23481892202e-002 +2.06296239792e-002 +8.58113100415e-001 -5.11805880098e-001 +8.58113100415e-001 -5.11805880098e-001 +5.37038219796e-003 +3.67466984353e-002
1.19250000000e+009 +3.27354330221e-002 +2.04632400258e-002 +8.54249891092e-001 -5.18207466281e-001 +8.54249891092e-001 -5.18207466281e-001 +5.59647261426e-003 +3.70329740048e-002
1.20906250000e+009 +3.30873038211e-002 +2.03194209477e-002 +8.50323203331e-001 -5.24550743232e-001 +8.50323203331e-001 -5.24550743232e-001 +5.76902994043e-003 +3.73122569721e-002
1.22562500000e+009 +3.34654177286e-002 +2.01892915294e-002 +8.46340246706e-001 -5.30861595872e-001 +8.46340246706e-001 -5.30861595872e-001 +5.98769206670e-003 +3.75774255817e-002
1.24218750000e+009 +3.38481451145e-002 +2.00840284121e-002 +8.42296868897e-001 -5.37146258047e-001 +8.42296868897e-001 -5.37146258047e-001 +6.25460123363e-003 +3.78647053556e-002
1.25875000000e+009 +3.42594986018e-002 +1.99839289557e-002 +8.38218276839e-001 -5.43413277783e-001 +8.38218276839e-001 -5.43413277783e-001 +6.49167631079e-003 +3.81827915072e-002
1.27531250000e+009 +3.46477410357e-002 +1.98672394479e-002 +8.34133532677e-001 -5.49659634194e-001 +8.34133532677e-001 -5.49659634194e-001 +6.70018383552e-003 +3.84840254441e-002
1.29187500000e+009 +3.50312513837e-002 +1.97253004044e-002 +8.29977866465e-001 -5.55865595533e-001 +8.29977866465e-001 -5.55865595533e-001 +6.87287481105e-003 +3.87281845554e-002
1.30843750000e+009 +3.54293998998e-002 +1.95586393678e-002 +8.25754325323e-001 -5.62032951141e-001 +8.25754325323e-001 -5.62032951141e-001 +7.05613187583e-003 +3.90117430708e-002
1.32500000000e+009 +3.58216937327e-002 +1.94024058210e-002 +8.21510162265e-001 -5.68154973233e-001 +8.21510162265e-001 -5.68154973233e-001 +7.23357048304e-003 +3.92715492912e-002
1.34156250000e+009 +3.62362170128e-002 +1.92157409357e-002 +8.17224768927e-001 -5.74256364918e-001 +8.17224768927e-001 -5.74256364918e-001 +7.39813039194e-003 +3.95118479667e-002
1.35812500000e+009 +3.65863049031e-002 +1.90343693330e-002 +8.12882401158e-001 -5.80321785349e-001 +8.12882401158e-001 -5.80321785349e-001 +7.59180653681e-003 +3.96993583012e-002
1.37468750000e+009 +3.69206573517e-002 +1.88759821770e-002 +8.08509734389e-001 -5.86357916285e-001 +8.08509734389e-001 -5.86357916285e-001 +7.79512723115e-003 +3.98749201419e-002
1.39125000000e+009 +3.73006352253e-002 +1.86967284934e-002 +8.04072384465e-001 -5.92352633457e-001 +8.04072384465e-001 -5.92352633457e-001 +7.98635807022e-003 +4.00017953450e-002
1.40781250000e+009 +3.76913693714e-002 +1.84995657460e-002 +7.99597538865e-001 -5.98311405070e-001 +7.99597538865e-001 -5.98311405070e-001 +8.25010497556e-003 +4.01625669233e-002
1.42437500000e+009 +3.80673726893e-002 +1.82539121277e-002 +7.95105191733e-001 -6.04239853129e-001 +7.95105191733e-001 -6.04239853129e-001 +8.51459882626e-003 +4.03600149030e-002
1.44093750000e+009 +3.84758910516e-002 +1.79999208045e-002 +7.90557865430e-001 -6.10138228619e-001 +7.90557865430e-001 -6.10138228619e-001 +8.77315066996e-003 +4.06039258507e-002
1.45750000000e+009 +3.87267995902e-002 +1.76915971060e-002 +7.85924657590e-001 -6.15995428607e-001 +7.85924657590e-001 -6.15995428607e-001 +8.98842378097e-003 +4.08030347149e-002
1.47406250000e+009 +3.89483839653e-002 +1.74960048271e-002 +7.81263081605e-001 -6.21824614825e-001 +7.81263081605e-001 -6.21824614825e-001 +9.22045742232e-003 +4.09784485688e-002
1.49062500000e+009 +3.92258479382e-002 +1.73094161120e-002 +7.76584937231e-001 -6.27617801849e-001 +7.76584937231e-001 -6.27617801849e-001 +9.39700729760e-003 +4.11541869894e-002
1.50718750000e+009 +3.96623407016e-002 +1.72033576723e-002 +7.71849438991e-001 -6.33375678508e-001 +7.71849438991e-001 -6.33375678508e-001 +9.54353440190e-003 +4.13333394801e-002
1.52375000000e+009 +4.00716000836e-002 +1.67847383363e-002 +7.67067631352e-001 -6.39089785327e-001 +7.67067631352e-001 -6.39089785327e-001 +9.68853867166e-003 +4.14839274955e-002
1.54031250000e+009 +4.03314497432e-002 +1.64608687865e-002 +7.62240439079e-001 -6.44745588189e-001 +7.62240439079e-001 -6.44745588189e-001 +9.84209142882e-003 +4.15682980841e-002
1.55687500000e+009 +4.05305684371e-002 +1.61414188386e-002 +7.57399100760e-001 -6.50402521359e-001 +7.57399100760e-001 -6.50402521359e-001 +9.98919176563e-003 +4.15975162193e-002
1.57343750000e+009 +4.06874349328e-002 +1.58514041313e-002 +7.52488620906e-001 -6.56001046537e-001 +7.52488620906e-001 -6.56001046537e-001 +1.01685934691e-002 +4.15503019169e-002
1.59000000000e+009 +4.08250699444e-002 +1.56330142335e-002 +7.47547912071e-001 -6.61556664545e-001 +7.47547912071e-001 -6.61556664545e-001 +1.04515694158e-002 +4.14504715844e-002
1.60656250000e+009 +4.11058703858e-002 +1.54416858463e-002 +7.42570541787e-001 -6.67082555268e-001 +7.42570541787e-001 -6.67082555268e-001 +1.07874041483e-002 +4.14767041349e-002
1.62312500000e+009 +4.13510021119e-002 +1.51773373762e-002 +7.37578122329e-001 -6.72571737893e-001 +7.37578122329e-001 -6.72571737893e-001 +1.11179042989e-002 +4.15117239196e-002
1.63968750000e+009 +4.15467030869e-002 +1.49444896327e-002 +7.32528845382e-001 -6.78036625878e-001 +7.32528845382e-001 -6.78036625878e-001 +1.14814001842e-002 +4.15788496516e-002
1.65625000000e+009 +4.17540303198e-002 +1.47532642562e-002 +7.27442248664e-001 -6.83469963779e-001 +7.27442248664e-001 -6.83469963779e-001 +1.18422351409e-002 +4.16756518993e-002
1.67281250000e+009 +4.19800148737e-002 +1.45178771249e-002 +7.22328443129e-001 -6.88871071567e-001 +7.22328443129e-001 -6.88871071567e-001 +1.21512766488e-002 +4.17918468142e-002
1.68937500000e+009 +4.21789946207e-002 +1.42780437116e-002 +7.17129402223e-001 -6.94196336195e-001 +7.17129402223e-001 -6.94196336195e-001 +1.24181066727e-002 +4.18857949968e-002
1.70593750000e+009 +4.24614935570e-002 +1.41050443268e-002 +7.11910756659e-001 -6.99484438750e-001 +7.11910756659e-001 -6.99484438750e-001 +1.26509729563e-002 +4.19801844487e-002
1.72250000000e+009 +4.28115829710e-002 +1.38307109114e-002 +7.06673276784e-001 -7.04751981302e-001 +7.06673276784e-001 -7.04751981302e-001 +1.28831909208e-002 +4.21016406870e-002
1.73906250000e+009 +4.30719887576e-002 +1.34539098332e-002 +7.01394170702e-001 -7.09985211618e-001 +7.01394170702e-001 -7.09985211618e-001 +1.30701433156e-002 +4.21669032952e-002
1.75562500000e+009 +4.32112122527e-002 +1.31080333837e-002 +6.96056574398e-001 -7.15165533822e-001 +6.96056574398e-001 -7.15165533822e-001 +1.32735318244e-002 +4.21437743467e-002
1.77218750000e+009 +4.33367068769e-002 +1.27965928593e-002 +6.90672467216e-001 -7.20302254598e-001 +6.90672467216e-001 -7.20302254598e-001 +1.35162212063e-002 +4.20973161837e-002
1.78875000000e+009 +4.34796534540e-002 +1.25144664630e-002 +6.85274905178e-001 -7.25396357330e-001 +6.85274905178e-001 -7.25396357330e-001 +1.37436290715e-002 +4.20686205642e-002
1.80531250000e+009 +4.36753676346e-002 +1.22421698290e-002 +6.79825243657e-001 -7.30426451438e-001 +6.79825243657e-001 -7.30426451438e-001 +1.39819290636e-002 +4.20260749846e-002
1.82187500000e+009 +4.38621768632e-002 +1.19527998763e-002 +6.74351959072e-001 -7.35432869310e-001 +6.74351959072e-001 -7.35432869310e-001 +1.42361792361e-002 +4.20115466670e-002
