# GHz S MA R 50

1.000000000000000e-02  6.9443111027068984e-03  1.7464977577116599e+02  9.9931479759209418e-01 -6.2019877399087098e-01  9.9931479759209407e-01 -6.2019877399087098e-01  4.5841217910126695e-03  5.3381844553868767e+01
2.000000000000000e-02  7.7986943097961585e-03  1.6972621552802482e+02  9.9993533310587490e-01 -1.1975187796390216e+00  9.9993533310587479e-01 -1.1975187796390221e+00  4.2407358565069121e-03  1.2140072170763167e+01
3.000000000000000e-02  7.2905023407280967e-03  1.6968028621507673e+02  9.9965710103621475e-01 -1.7763987798526750e+00  9.9965710103621486e-01 -1.7763987798526755e+00  3.0012863206714687e-03  1.9369990319068620e+01
4.000000000000000e-02  7.5519919844919325e-03  1.6132470783396715e+02  9.9959527677490401e-01 -2.3604135144845499e+00  9.9959527677490423e-01 -2.3604135144845495e+00  3.1864903006775030e-03  3.1974012290051252e+01
5.000000000000000e-02  7.7031719962436605e-03  1.5920259562643020e+02  9.9944103558346176e-01 -2.9459869845992896e+00  9.9944103558346165e-01 -2.9459869845992901e+00  3.8171072651632574e-03  3.8108020009559709e+01
6.000000000000000e-02  8.1091235593804059e-03  1.5477372603600637e+02  9.9936162007863116e-01 -3.5260418500482049e+00  9.9936162007863127e-01 -3.5260418500482049e+00  4.0387681301676560e-03  3.7090285299634473e+01
7.000000000000001e-02  8.0605643964782522e-03  1.5405394016509788e+02  9.9908106283859033e-01 -4.1044117942961336e+00  9.9908106283859033e-01 -4.1044117942961327e+00  4.2511941697917126e-03  4.0673153334527726e+01
8.000000000000000e-02  8.2047197968036049e-03  1.4903920391274826e+02  9.9887839078934526e-01 -4.6853655288657352e+00  9.9887839078934537e-01 -4.6853655288657334e+00  4.5064844627407362e-03  4.3571041915750001e+01
9.000000000000001e-02  8.1776576104460232e-03  1.4696374373122924e+02  9.9870641836808538e-01 -5.2704717174136704e+00  9.9870641836808538e-01 -5.2704717174136686e+00  4.8743174495753765e-03  4.4772200598637269e+01
1.000000000000000e-01  8.4150986601345089e-03  1.4057406468301701e+02  9.9853711778278764e-01 -5.8540728234411770e+00  9.9853711778278742e-01 -5.8540728234411796e+00  4.9584359388283265e-03  4.7562600997022187e+01
1.100000000000000e-01  8.8350230128754394e-03  1.3851074842906951e+02  9.9851837921935560e-01 -6.4344709920692038e+00  9.9851837921935560e-01 -6.4344709920692020e+00  5.4666301275703632e-03  5.0481516400826820e+01
1.200000000000000e-01  9.1501814714577794e-03  1.3512496407761483e+02  9.9835530757355140e-01 -7.0147176953598427e+00  9.9835530757355084e-01 -7.0147176953598454e+00  5.7627975642302659e-03  5.1147339636513159e+01
1.300000000000000e-01  9.3824890021913573e-03  1.3346857105312728e+02  9.9822064853986181e-01 -7.5917856410645186e+00  9.9822064853986181e-01 -7.5917856410645186e+00  6.1699324011428545e-03  5.1867420494203202e+01
1.400000000000000e-01  9.7056427287625351e-03  1.2986703589917531e+02  9.9812618196886238e-01 -8.1673449771422888e+00  9.9812618196886227e-01 -8.1673449771422870e+00  6.3629515891437073e-03  5.2728763270946793e+01
1.500000000000000e-01  1.0049557640398901e-02  1.2882864104131022e+02  9.9816647270264014e-01 -8.7427296089482436e+00  9.9816647270264025e-01 -8.7427296089482418e+00  6.7673319227420639e-03  5.3865582331195370e+01
1.600000000000000e-01  1.0215381637106396e-02  1.2619212249351769e+02  9.9805372829710515e-01 -9.3193238279211155e+00  9.9805372829710493e-01 -9.3193238279211190e+00  7.0299431065284955e-03  5.4606848672490514e+01
1.700000000000000e-01  1.0448768442679217e-02  1.2428330608966533e+02  9.9793046621378323e-01 -9.8970397924558569e+00  9.9793046621378312e-01 -9.8970397924558533e+00  7.4596748439529391e-03  5.4874476281555872e+01
1.800000000000000e-01  1.0694553902383974e-02  1.2151942099497100e+02  9.9780029402222326e-01 -1.0473067260833687e+01  9.9780029402222326e-01 -1.0473067260833689e+01  7.6520456561173294e-03  5.5124180660106298e+01
1.900000000000000e-01  1.0895190484077728e-02  1.1958528815464986e+02  9.9769590336999014e-01 -1.1049685331334633e+01  9.9769590336999014e-01 -1.1049685331334633e+01  8.0116182094804780e-03  5.5639514099506144e+01
2.000000000000000e-01  1.1223310692452285e-02  1.1621027983029815e+02  9.9759769437348511e-01 -1.1626482302373967e+01  9.9759769437348511e-01 -1.1626482302373963e+01  8.1995406725299032e-03  5.6352546912624511e+01
2.100000000000000e-01  1.1644471247663808e-02  1.1476799978356729e+02  9.9762700546855165e-01 -1.2205355490415428e+01  9.9762700546855154e-01 -1.2205355490415428e+01  8.6423844307619620e-03  5.7255402366030786e+01
2.200000000000000e-01  1.1903879280061367e-02  1.1222222201831859e+02  9.9748984560814258e-01 -1.2783873523219018e+01  9.9748984560814269e-01 -1.2783873523219018e+01  8.9446983154277057e-03  5.7281185298899416e+01
2.300000000000000e-01  1.2357729657744430e-02  1.1039276684439675e+02  9.9741180935323281e-01 -1.3363921747107456e+01  9.9741180935323281e-01 -1.3363921747107455e+01  9.3237718946486362e-03  5.7414171293023607e+01
2.400000000000000e-01  1.2700200224102745e-02  1.0842445487141291e+02  9.9730882465462767e-01 -1.3940173646519993e+01  9.9730882465462767e-01 -1.3940173646519991e+01  9.5825604798996326e-03  5.7531487873214736e+01
2.500000000000000e-01  1.3194770639737424e-02  1.0663026444052696e+02  9.9723779412204638e-01 -1.4515699805173972e+01  9.9723779412204638e-01 -1.4515699805173977e+01  9.9368509031183237e-03  5.7582553183390196e+01
2.600000000000000e-01  1.3699952071983641e-02  1.0579854417323446e+02  9.9741733218754214e-01 -1.5088388895304051e+01  9.9741733218754236e-01 -1.5088388895304053e+01  1.0185150609651189e-02  5.7889833680985028e+01
2.700000000000000e-01  1.3904102866009365e-02  1.0506789395448217e+02  9.9730256169848297e-01 -1.5662874627050138e+01  9.9730256169848286e-01 -1.5662874627050144e+01  1.0547076696161123e-02  5.7741561393976518e+01
2.800000000000000e-01  1.4170280875704395e-02  1.0350679943881441e+02  9.9718978250276358e-01 -1.6236425349119475e+01  9.9718978250276358e-01 -1.6236425349119479e+01  1.0749000169344160e-02  5.7923590818849739e+01
2.900000000000000e-01  1.4376595712744271e-02  1.0228560681854439e+02  9.9706565703498495e-01 -1.6810150237146459e+01  9.9706565703498518e-01 -1.6810150237146459e+01  1.1077498727057697e-02  5.7849248863451955e+01
3.000000000000000e-01  1.4645567268154488e-02  1.0053310672883678e+02  9.9697063926019913e-01 -1.7382232538002501e+01  9.9697063926019924e-01 -1.7382232538002501e+01  1.1237242351975808e-02  5.8417255856339693e+01
3.100000000000000e-01  1.4858351792302101e-02  9.9118526398331881e+01  9.9685917781972144e-01 -1.7955606008803105e+01  9.9685917781972133e-01 -1.7955606008803109e+01  1.1654789216909199e-02  5.8644100730893761e+01
3.200000000000000e-01  1.5164690582038117e-02  9.7127590570022562e+01  9.9676427306944582e-01 -1.8530236059224247e+01  9.9676427306944571e-01 -1.8530236059224244e+01  1.1838752434071948e-02  5.9046649932397962e+01
3.300000000000000e-01  1.5477552911145488e-02  9.5637637384570766e+01  9.9664198769386236e-01 -1.9110071956884056e+01  9.9664198769386259e-01 -1.9110071956884056e+01  1.2341455635765605e-02  5.9485199381305151e+01
3.400000000000000e-01  1.5842067484117657e-02  9.3910388861101978e+01  9.9655640122797740e-01 -1.9686765612050223e+01  9.9655640122797751e-01 -1.9686765612050223e+01  1.2619273978048150e-02  5.9232868391142446e+01
3.500000000000000e-01  1.6134247768941696e-02  9.2585835120589138e+01  9.9645194260039405e-01 -2.0262789117888442e+01  9.9645194260039416e-01 -2.0262789117888442e+01  1.3001889958079887e-02  5.9424813408356385e+01
3.600000000000000e-01  1.6477762464996076e-02  9.0767766342451210e+01  9.9635279796572884e-01 -2.0838201214369633e+01  9.9635279796572884e-01 -2.0838201214369622e+01  1.3295778278323695e-02  5.9550560058906719e+01
3.700000000000000e-01  1.6841243407183092e-02  8.9270021108201419e+01  9.9624439028047262e-01 -2.1413606186188439e+01  9.9624439028047262e-01 -2.1413606186188439e+01  1.3755372569098447e-02  5.9607406471554306e+01
3.800000000000000e-01  1.7281271322057382e-02  8.7610167075922831e+01  9.9616382273544879e-01 -2.1989791332111235e+01  9.9616382273544890e-01 -2.1989791332111231e+01  1.4071684004219695e-02  5.9533193062824473e+01
3.900000000000000e-01  1.7729622564480994e-02  8.6303468250033589e+01  9.9605664975959141e-01 -2.2565383030449599e+01  9.9605664975959129e-01 -2.2565383030449599e+01  1.4560723960545110e-02  5.9377786285293929e+01
4.000000000000000e-01  1.8221969674821387e-02  8.5259876195551385e+01  9.9611568059169853e-01 -2.3138749807092797e+01  9.9611568059169853e-01 -2.3138749807092797e+01  1.4851096839305552e-02  5.9038109208407455e+01
4.100000000000000e-01  1.8494109638240830e-02  8.4235303928678789e+01  9.9602554143327959e-01 -2.3713457109475335e+01  9.9602554143327948e-01 -2.3713457109475332e+01  1.5299410553042552e-02  5.8860024701446179e+01
4.200000000000000e-01  1.8944775342408873e-02  8.2775487142351906e+01  9.9592287343296382e-01 -2.4287429939714990e+01  9.9592287343296382e-01 -2.4287429939714990e+01  1.5564251877672346e-02  5.8459407618829211e+01
4.300000000000000e-01  1.9314399001540753e-02  8.1768933070161083e+01  9.9587182076509895e-01 -2.4863221453769050e+01  9.9587182076509906e-01 -2.4863221453769039e+01  1.6015230310301418e-02  5.8469413841937794e+01
4.400000000000000e-01  1.9788794087151406e-02  8.0507349964261707e+01  9.9575932294411573e-01 -2.5439447490234635e+01  9.9575932294411573e-01 -2.5439447490234645e+01  1.6381290138851885e-02  5.7883222293989370e+01
4.500000000000000e-01  2.0149064914527125e-02  7.9661639442331648e+01  9.9563775064285287e-01 -2.6014677319538670e+01  9.9563775064285276e-01 -2.6014677319538670e+01  1.6769508050827404e-02  5.7457182298727915e+01
4.600000000000000e-01  2.0580588195406292e-02  7.8488078750792155e+01  9.9552121266054172e-01 -2.6589025501077696e+01  9.9552121266054183e-01 -2.6589025501077696e+01  1.7057115977084248e-02  5.6940172294028969e+01
4.700000000000000e-01  2.0939159521899016e-02  7.7605863269476743e+01  9.9542298288269337e-01 -2.7162004120706470e+01  9.9542298288269360e-01 -2.7162004120706467e+01  1.7426238818158770e-02  5.6566778965442268e+01
4.800000000000000e-01  2.1405928377839823e-02  7.6571157114761675e+01  9.9534924775495182e-01 -2.7736555173920586e+01  9.9534924775495193e-01 -2.7736555173920586e+01  1.7711727347063059e-02  5.6087075028520609e+01
4.900000000000000e-01  2.1707906575745662e-02  7.5871605176625621e+01  9.9525840559704903e-01 -2.8311728813841576e+01  9.9525840559704926e-01 -2.8311728813841565e+01  1.8089734902053085e-02  5.5590446131369355e+01
5.000000000000000e-01  2.2126589726993454e-02  7.4722276745942636e+01  9.9517078398004610e-01 -2.8886939072649390e+01  9.9517078398004633e-01 -2.8886939072649394e+01  1.8312905059048507e-02  5.4926754155356818e+01
5.100000000000000e-01  2.2487390356788688e-02  7.4104315442150678e+01  9.9510221753469030e-01 -2.9462762163366595e+01  9.9510221753469053e-01 -2.9462762163366591e+01  1.8572998826896513e-02  5.4493146751983609e+01
5.200000000000000e-01  2.2812859594254279e-02  7.3224133409303946e+01  9.9502584116525661e-01 -3.0037221914620691e+01  9.9502584116525672e-01 -3.0037221914620691e+01  1.8743108639183170e-02  5.4178800683931065e+01
5.300000000000000e-01  2.3048243427015450e-02  7.2404635457270629e+01  9.9493852309127850e-01 -3.0609936794343259e+01  9.9493852309127850e-01 -3.0609936794343273e+01  1.9033574480445639e-02  5.3936125944866539e+01
5.400000000000000e-01  2.3408800425640992e-02  7.1310542147296175e+01  9.9485356785636159e-01 -3.1185813713338394e+01  9.9485356785636159e-01 -3.1185813713338401e+01  1.9219867194040320e-02  5.3754261836792914e+01
5.500000000000000e-01  2.3685512529842093e-02  7.0561028167197733e+01  9.9475752889094782e-01 -3.1761781677461503e+01  9.9475752889094771e-01 -3.1761781677461489e+01  1.9598741571850275e-02  5.3563401289952878e+01
5.600000000000001e-01  2.3983885611553745e-02  6.9594460546260365e+01  9.9467099321436281e-01 -3.2336033435338869e+01  9.9467099321436292e-01 -3.2336033435338869e+01  1.9802629485212050e-02  5.3100866458913707e+01
5.700000000000001e-01  2.4149413540848947e-02  6.8701104956175527e+01  9.9457475937248185e-01 -3.2909341884775237e+01  9.9457475937248174e-01 -3.2909341884775223e+01  2.0090198236342831e-02  5.2853536104363130e+01
5.800000000000001e-01  2.4444460642551579e-02  6.7389061679985147e+01  9.9448480438909659e-01 -3.3483099591423972e+01  9.9448480438909670e-01 -3.3483099591423986e+01  2.0233269247999383e-02  5.2592899453746028e+01
5.900000000000001e-01  2.4726064376379808e-02  6.6297773620553698e+01  9.9440773066768817e-01 -3.4056594983041045e+01  9.9440773066768828e-01 -3.4056594983041045e+01  2.0549034864480162e-02  5.2652197304417413e+01
6.000000000000001e-01  2.5141946638587778e-02  6.5081956189232059e+01  9.9432296697841682e-01 -3.4630590927431207e+01  9.9432296697841704e-01 -3.4630590927431207e+01  2.0805874175238239e-02  5.2478313178639013e+01
6.100000000000000e-01  2.5443621727582872e-02  6.4158822113930015e+01  9.9424344478373572e-01 -3.5204941327357389e+01  9.9424344478373572e-01 -3.5204941327357389e+01  2.1209803492532573e-02  5.2364692246871691e+01
6.200000000000000e-01  2.5877248121625614e-02  6.2952152626740030e+01  9.9416078715781842e-01 -3.5778459919063934e+01  9.9416078715781830e-01 -3.5778459919063934e+01  2.1484453312529260e-02  5.1898959120390174e+01
6.300000000000000e-01  2.6241306808851238e-02  6.2215456464371648e+01  9.9417227821736187e-01 -3.6352646361257641e+01  9.9417227821736187e-01 -3.6352646361257641e+01  2.1800072521948460e-02  5.1612795659878962e+01
6.400000000000000e-01  2.6571765947517246e-02  6.1167327639295593e+01  9.9406014350029248e-01 -3.6926342130340942e+01  9.9406014350029248e-01 -3.6926342130340942e+01  2.1985937568719440e-02  5.1334658618279803e+01
6.500000000000000e-01  2.6915024358851587e-02  6.0179998151961918e+01  9.9397138091976511e-01 -3.7499970958446042e+01  9.9397138091976500e-01 -3.7499970958446042e+01  2.2361733054992446e-02  5.1297137405556704e+01
6.600000000000000e-01  2.7369794181971715e-02  5.9196410949290510e+01  9.9389027971334565e-01 -3.8075177271864561e+01  9.9389027971334554e-01 -3.8075177271864561e+01  2.2661621851023526e-02  5.0888223703981247e+01
6.700000000000000e-01  2.7700640196269728e-02  5.8425720106912081e+01  9.9380709401878597e-01 -3.8648770614731767e+01  9.9380709401878597e-01 -3.8648770614731767e+01  2.3020787090604462e-02  5.0580456530412519e+01
6.800000000000000e-01  2.8108054679806746e-02  5.7478151927819511e+01  9.9370314077613120e-01 -3.9221995168528231e+01  9.9370314077613109e-01 -3.9221995168528224e+01  2.3244741363765729e-02  5.0139464994235915e+01
6.900000000000001e-01  2.8438318632550402e-02  5.6693004734599626e+01  9.9361915068754736e-01 -3.9795424594567351e+01  9.9361915068754736e-01 -3.9795424594567351e+01  2.3586428921147116e-02  4.9936876229422722e+01
7.000000000000001e-01  2.8877454946270437e-02  5.5810918081125585e+01  9.9353499527381728e-01 -4.0368973262565213e+01  9.9353499527381717e-01 -4.0368973262565213e+01  2.3841896360330031e-02  4.9539971011935322e+01
7.100000000000001e-01  2.9196608977726024e-02  5.5192113710464625e+01  9.9342082083477656e-01 -4.0943498563007680e+01  9.9342082083477656e-01 -4.0943498563007672e+01  2.4227192889918613e-02  4.9262670283069298e+01
7.200000000000001e-01  2.9538418582902546e-02  5.4413475865795611e+01  9.9329658719521219e-01 -4.1517323734755024e+01  9.9329658719521208e-01 -4.1517323734755024e+01  2.4475705008934010e-02  4.8691226336057191e+01
7.300000000000001e-01  2.9768060706033845e-02  5.3722329413420731e+01  9.9322135176634763e-01 -4.2090661403624594e+01  9.9322135176634740e-01 -4.2090661403624594e+01  2.4815259792653904e-02  4.8345078279507327e+01
7.400000000000000e-01  3.0076822746315009e-02  5.2832050995473729e+01  9.9313740546841189e-01 -4.2663509659993316e+01  9.9313740546841212e-01 -4.2663509659993309e+01  2.5014942477645335e-02  4.7696485309773131e+01
7.500000000000000e-01  3.0317307134023634e-02  5.2028348645666433e+01  9.9305839024058906e-01 -4.3237623963901605e+01  9.9305839024058906e-01 -4.3237623963901612e+01  2.5247888543148272e-02  4.7402324980572196e+01
7.600000000000000e-01  3.0674742323083010e-02  5.1138355945828550e+01  9.9298259965132074e-01 -4.3810344102265418e+01  9.9298259965132074e-01 -4.3810344102265418e+01  2.5422454072323891e-02  4.6996479155182307e+01
7.700000000000000e-01  3.0902698793973497e-02  5.0425145415575223e+01  9.9289514044234628e-01 -4.4383859002747521e+01  9.9289514044234661e-01 -4.4383859002747521e+01  2.5709869242274537e-02  4.6805643017794154e+01
7.800000000000000e-01  3.1203197439353125e-02  4.9513548404922695e+01  9.9281608901048535e-01 -4.4956022126376098e+01  9.9281608901048535e-01 -4.4956022126376098e+01  2.5912757744371746e-02  4.6370814598410128e+01
7.900000000000000e-01  3.1430459176081615e-02  4.8730606250679166e+01  9.9274344802674441e-01 -4.5528434220474232e+01  9.9274344802674441e-01 -4.5528434220474225e+01  2.6203623396932725e-02  4.6157999088318043e+01
8.000000000000000e-01  3.1723296463771977e-02  4.7811352345737504e+01  9.9268537779464217e-01 -4.6100844942436524e+01  9.9268537779464228e-01 -4.6100844942436524e+01  2.6385460585297976e-02  4.5699134977196621e+01
8.100000000000001e-01  3.1951969187572551e-02  4.6949510876153589e+01  9.9258236818751311e-01 -4.6674124888361568e+01  9.9258236818751311e-01 -4.6674124888361568e+01  2.6650774832426553e-02  4.5596476764046805e+01
8.200000000000001e-01  3.2277818423391669e-02  4.6044043666438704e+01  9.9251201767994246e-01 -4.7247297858279410e+01  9.9251201767994246e-01 -4.7247297858279410e+01  2.6891329675081687e-02  4.5230489392701486e+01
8.300000000000001e-01  3.2482309018488476e-02  4.5192764118138911e+01  9.9244029170745585e-01 -4.7819561487000463e+01  9.9244029170745585e-01 -4.7819561487000463e+01  2.7217324807104655e-02  4.5089523048214296e+01
8.400000000000001e-01  3.2804594899083141e-02  4.4222796751881134e+01  9.9234985290622857e-01 -4.8393219811530649e+01  9.9234985290622835e-01 -4.8393219811530656e+01  2.7496156032873215e-02  4.4611947908414102e+01
8.500000000000001e-01  3.3029949152787653e-02  4.3301849058307248e+01  9.9226409308898345e-01 -4.8965411095314217e+01  9.9226409308898345e-01 -4.8965411095314217e+01  2.7812504363852481e-02  4.4366753264865253e+01
8.600000000000001e-01  3.3415944061725059e-02  4.2294922238282062e+01  9.9216128054727504e-01 -4.9538239506654357e+01  9.9216128054727515e-01 -4.9538239506654342e+01  2.8095404252987354e-02  4.3815883618018908e+01
8.700000000000001e-01  3.3701793429261238e-02  4.1416149350691178e+01  9.9205435920277907e-01 -5.0111337471409804e+01  9.9205435920277907e-01 -5.0111337471409811e+01  2.8368240424389120e-02  4.3427473328489278e+01
8.800000000000000e-01  3.4138871796688862e-02  4.0477271994490820e+01  9.9195776080133524e-01 -5.0684176873145582e+01  9.9195776080133535e-01 -5.0684176873145582e+01  2.8560604552417500e-02  4.2911422858185261e+01
8.900000000000000e-01  3.4460582434433229e-02  3.9712944975457489e+01  9.9186945925189218e-01 -5.1257185789818024e+01  9.9186945925189207e-01 -5.1257185789818017e+01  2.8830448174101440e-02  4.2670208641237842e+01
9.000000000000000e-01  3.4908830737754845e-02  3.8885295884307048e+01  9.9177124331507660e-01 -5.1830734283887686e+01  9.9177124331507649e-01 -5.1830734283887686e+01  2.9080548803447983e-02  4.2146632102100519e+01
9.100000000000000e-01  3.5233087315412401e-02  3.8275447724560138e+01  9.9169717386235312e-01 -5.2402904026851125e+01  9.9169717386235323e-01 -5.2402904026851125e+01  2.9344234542261559e-02  4.1781988608457567e+01
9.200000000000000e-01  3.5603485937361470e-02  3.7610192965268233e+01  9.9162059038417683e-01 -5.2975052091928902e+01  9.9162059038417694e-01 -5.2975052091928880e+01  2.9529916119158610e-02  4.1236404124385658e+01
9.300000000000000e-01  3.5822105096174305e-02  3.7029954533388164e+01  9.9153902112035797e-01 -5.3546669737941855e+01  9.9153902112035797e-01 -5.3546669737941855e+01  2.9766911153485575e-02  4.0955346693350535e+01
