!Keysight Technologies,N5242B,MY48220591,A.15.75.19
!Date: Tuesday, May 30, 2023 17:30:02
!Correction: S11(C  2-Port  ) 
!S21(C  2-Port  ) 
!S12(C  2-Port  ) 
!S22(C  2-Port  ) 
!S2P File: Measurements: S11, S21, S12, S22:
# Hz S  RI   R 50
10000000 0.0010226715 0.0026349921 0.9981854 -0.021541178 0.99812448 -0.021679342 0.00062408845 0.0041599628
20000000 -2.4020264e-005 0.0013839743 0.99882734 -0.041743338 0.99843621 -0.041702926 0.0018889228 0.0015865541
30000000 6.4817621e-005 0.0024424279 0.99719507 -0.061917514 0.99689996 -0.061867669 0.00091390242 0.0022180101
40000000 0.00033926417 0.0035007522 0.99560112 -0.08219099 0.9951365 -0.082209885 0.00062861724 0.003446257
50000000 0.00040603615 0.0043377066 0.99340701 -0.1024822 0.9928574 -0.1024307 0.0012563311 0.0042586615
60000000 0.00032269361 0.0051009064 0.99097282 -0.12255348 0.99041855 -0.12240783 0.0015756958 0.0048642079
70000000 0.00063628471 0.0057558818 0.98773122 -0.14246398 0.98737895 -0.14234149 0.0019465212 0.0055031553
80000000 0.0011483572 0.0065514483 0.98424053 -0.16239674 0.98414826 -0.16237125 0.0020506943 0.0066237519
90000000 0.0017221599 0.007083029 0.98038489 -0.182399 0.98044574 -0.18247886 0.0022863236 0.0070264386
100000000 0.0022632736 0.0078699123 0.97613269 -0.20225179 0.97613513 -0.20231968 0.002514164 0.0078217033
110000000 0.0023408125 0.0086650625 0.97179854 -0.22196475 0.97166556 -0.22193933 0.0027814994 0.0086190868
120000000 0.0026955707 0.009376185 0.96678728 -0.24151732 0.96678376 -0.24143867 0.0032393723 0.0093007591
130000000 0.0031589628 0.009940194 0.96146619 -0.26086643 0.9615891 -0.26086441 0.0035684546 0.0098683406
140000000 0.0035979692 0.010431471 0.95585114 -0.28006524 0.95593542 -0.28012988 0.0039670384 0.010389214
150000000 0.0037118411 0.010994812 0.95010793 -0.29922229 0.95001554 -0.29925674 0.0043973289 0.010986589
160000000 0.0041881576 0.011449901 0.94367921 -0.31820792 0.94359857 -0.31820279 0.0049150148 0.011564475
170000000 0.0046348693 0.012008911 0.93684095 -0.33708411 0.93683106 -0.33702192 0.0054805912 0.012126916
180000000 0.0051644458 0.012541668 0.92963052 -0.35575837 0.92976975 -0.3557514 0.0059781251 0.012649563
190000000 0.0057795527 0.013045378 0.92208833 -0.37431443 0.92223489 -0.37435168 0.0064477948 0.013186955
200000000 0.0064677014 0.013556544 0.9141866 -0.39271855 0.91425943 -0.39279237 0.0069286139 0.013711523
210000000 0.0068204654 0.014196293 0.90611804 -0.41112334 0.90606892 -0.41112852 0.0074704634 0.014350522
220000000 0.0075357854 0.014708496 0.89738625 -0.42921603 0.89738005 -0.42916185 0.0080910185 0.014830139
230000000 0.0081704464 0.015325664 0.88837451 -0.44721675 0.88844049 -0.44711605 0.0086770523 0.015299485
240000000 0.0088690128 0.01575309 0.87901616 -0.4648937 0.87908936 -0.46485645 0.00926047 0.015765892
250000000 0.0095138596 0.016159477 0.86938143 -0.48237589 0.86942154 -0.48239565 0.0098215602 0.016171783
260000000 0.0096512847 0.016718963 0.85987389 -0.49983191 0.8595106 -0.49973971 0.010356742 0.016629901
270000000 0.01031612 0.017083254 0.84947968 -0.51685029 0.84918213 -0.5167051 0.010906296 0.016886678
280000000 0.010963793 0.017292371 0.83876997 -0.53362644 0.83855712 -0.53346461 0.011500835 0.017194778
290000000 0.011724363 0.017558489 0.8277092 -0.55017418 0.82761377 -0.55006075 0.012059813 0.017423708
300000000 0.012499067 0.017705107 0.81639779 -0.56647551 0.81627798 -0.56645107 0.012643334 0.017714433
310000000 0.013275111 0.017836742 0.80472046 -0.58256042 0.80460358 -0.5825721 0.013313945 0.01801645
320000000 0.01403104 0.018030966 0.79272276 -0.59846085 0.79263437 -0.59839565 0.014007245 0.018200243
330000000 0.014887871 0.018336115 0.78025669 -0.61421746 0.78022224 -0.61418784 0.014914801 0.018656351
340000000 0.015750175 0.018523686 0.76760584 -0.62968421 0.76765496 -0.62964541 0.01566218 0.018859854
350000000 0.016619222 0.018662032 0.75463188 -0.64484304 0.75469398 -0.64487487 0.01644269 0.019138951
360000000 0.017548725 0.018760039 0.74138248 -0.6597299 0.74142814 -0.65978193 0.017192861 0.019419039
370000000 0.018521357 0.018864447 0.72783077 -0.67432576 0.7278949 -0.67444015 0.018031999 0.019635499
380000000 0.019448524 0.018963678 0.71401107 -0.6887055 0.7140559 -0.68873507 0.018856674 0.019841081
390000000 0.02038675 0.018989412 0.69989109 -0.70274442 0.69999057 -0.70283651 0.019723253 0.020010751
400000000 0.020988546 0.019150289 0.68577546 -0.71668839 0.68571514 -0.71666378 0.020500012 0.020099195
410000000 0.021992154 0.019157803 0.67114246 -0.73015636 0.67104745 -0.73012298 0.021306973 0.020174
420000000 0.022936892 0.019013021 0.6562534 -0.74329358 0.65617096 -0.74322271 0.022063635 0.020158216
430000000 0.023852926 0.018929383 0.64112449 -0.75623906 0.64099097 -0.75616819 0.022892838 0.020241978
440000000 0.024741068 0.018734355 0.62565792 -0.76879817 0.62560034 -0.76873207 0.023726892 0.020172192
450000000 0.025544133 0.018519174 0.60995835 -0.78100348 0.60994703 -0.78099144 0.024473643 0.020055467
460000000 0.026346533 0.018238466 0.59405202 -0.79288304 0.59408265 -0.79294997 0.025196679 0.019946387
470000000 0.027134545 0.017934034 0.57797581 -0.80443704 0.57795548 -0.80456579 0.0258554 0.01976826
480000000 0.02781456 0.017639613 0.56165981 -0.81573963 0.56158906 -0.81580615 0.026539449 0.019556191
490000000 0.028491005 0.017274262 0.54508507 -0.82669181 0.54505396 -0.82674676 0.027214948 0.0192414
500000000 0.029110935 0.016867878 0.52829969 -0.83732271 0.5282985 -0.83734852 0.027832031 0.018934658
510000000 0.029738151 0.016710032 0.51130378 -0.84765077 0.51142853 -0.84779441 0.028322307 0.018578134
520000000 0.030455125 0.016169226 0.49413741 -0.85759258 0.49422979 -0.85775101 0.028881518 0.018264914
530000000 0.031006943 0.015597973 0.47682559 -0.86714029 0.47684267 -0.86735016 0.029441098 0.017892322
540000000 0.031626191 0.01510642 0.45923188 -0.87639475 0.45926616 -0.87660635 0.030038804 0.017578617
550000000 0.032130767 0.014635456 0.44145289 -0.88527107 0.4414894 -0.88547754 0.030697793 0.01715829
560000000 0.032709938 0.014185144 0.42355537 -0.89378434 0.42355901 -0.89395738 0.031321052 0.016709717
570000000 0.03339896 0.013514588 0.40551689 -0.90189922 0.40552819 -0.9021247 0.031890083 0.016282925
580000000 0.03407209 0.012771693 0.38731292 -0.90967333 0.38730389 -0.90985954 0.032429125 0.015899587
590000000 0.034718025 0.012074826 0.36898559 -0.91709369 0.36893916 -0.91728896 0.03302497 0.015516214
600000000 0.035246551 0.011459687 0.35049608 -0.92414296 0.35043192 -0.92430931 0.033684127 0.015079012
610000000 0.035792064 0.010900191 0.33186615 -0.93082893 0.33179924 -0.93094009 0.034369778 0.014572917
620000000 0.036343642 0.010274354 0.31313246 -0.93713367 0.31307271 -0.93723416 0.035018396 0.014036112
630000000 0.036788601 0.0098634474 0.29431146 -0.94324243 0.29431593 -0.9433192 0.035543881 0.013498589
640000000 0.03738055 0.0092278132 0.27531216 -0.94873047 0.27534235 -0.94888633 0.036094178 0.013004344
650000000 0.037976056 0.0085228002 0.25623652 -0.95387721 0.25622031 -0.95404238 0.036699537 0.01251274
660000000 0.038445674 0.0079284478 0.2370151 -0.95867693 0.23705056 -0.9588474 0.037277546 0.011907906
670000000 0.03895548 0.0073051206 0.2177572 -0.96306777 0.21777718 -0.9631874 0.037793897 0.011280276
680000000 0.039408732 0.0065535344 0.19841948 -0.96703339 0.19841126 -0.96719992 0.038256772 0.010685789
690000000 0.039816849 0.0058451407 0.179015 -0.97064704 0.17901756 -0.97082716 0.038712565 0.010075406
700000000 0.040181868 0.0051073455 0.15954031 -0.97387689 0.15949839 -0.97399098 0.03914623 0.0094343806
710000000 0.040411334 0.0044418368 0.1399712 -0.9766587 0.13994721 -0.97680771 0.039586127 0.0087023824
720000000 0.040677287 0.0037145102 0.12036741 -0.97902912 0.12035204 -0.97921032 0.039970655 0.0079731848
730000000 0.040912885 0.0028722007 0.10075611 -0.98109728 0.10075359 -0.98123538 0.040304586 0.0072453143
740000000 0.041092493 0.0020210613 0.081118643 -0.98276258 0.081108898 -0.98287171 0.040554367 0.0064754002
750000000 0.041315563 0.0011756448 0.061413586 -0.98403859 0.061417729 -0.98418498 0.04080645 0.0057896189
760000000 0.041469231 0.00034698471 0.041736662 -0.98492897 0.041689545 -0.98510015 0.041058414 0.0051407609
770000000 0.041598108 -0.00043228827 0.022025824 -0.98539811 0.021996975 -0.98555017 0.041294958 0.0044197142
780000000 0.041762657 -0.0013232706 0.0023552179 -0.9854942 0.0023524612 -0.98567289 0.0415303 0.0036750527
790000000 0.041908521 -0.0022205804 -0.017313391 -0.98520541 -0.017396688 -0.98538613 0.041775197 0.0029073991
800000000 0.041981913 -0.0032413118 -0.036976397 -0.98455799 -0.037047893 -0.98468578 0.041991249 0.0021859594
810000000 0.041939612 -0.0042057722 -0.056639586 -0.98342419 -0.056711458 -0.98360997 0.042209722 0.0015014037
820000000 0.041884355 -0.0050474014 -0.076277435 -0.98196912 -0.076338112 -0.98209697 0.042436153 0.00075147115
830000000 0.041852824 -0.0059275134 -0.09584415 -0.9801169 -0.095896304 -0.98018318 0.042661417 -7.1320683e-006
840000000 0.04183818 -0.0067996345 -0.11541602 -0.97784078 -0.11544766 -0.97794789 0.042847645 -0.00080468552
850000000 0.041846409 -0.0077203847 -0.13488385 -0.97518438 -0.13497818 -0.97524071 0.042986881 -0.001552349
860000000 0.041847285 -0.0086258911 -0.15431172 -0.97211403 -0.15444493 -0.97218502 0.043056205 -0.0023318296
870000000 0.041791964 -0.0095038116 -0.17367797 -0.96864271 -0.17377761 -0.96874273 0.042997688 -0.0030698921
880000000 0.041752525 -0.010333613 -0.19296563 -0.96481168 -0.19305915 -0.96495926 0.042912055 -0.0038065519
890000000 0.041633736 -0.011157183 -0.21217036 -0.96060508 -0.21230242 -0.96076417 0.042870983 -0.0045578545
900000000 0.041482538 -0.011930209 -0.23130247 -0.95600283 -0.23141193 -0.95618522 0.042746708 -0.0053552128
910000000 0.041255713 -0.012663072 -0.25029618 -0.95107114 -0.2504141 -0.95119148 0.042609431 -0.0061953571
920000000 0.040912669 -0.013405792 -0.26919085 -0.94576031 -0.26928839 -0.94583106 0.042449508 -0.0069321641
930000000 0.040511675 -0.014146963 -0.28794599 -0.94006401 -0.28804547 -0.940144 0.042291254 -0.0077190828
940000000 0.040052459 -0.014889626 -0.30659962 -0.93398404 -0.30670857 -0.93405581 0.042126313 -0.0084663145
950000000 0.039573602 -0.015672063 -0.32511643 -0.92750597 -0.32522744 -0.92761123 0.041925065 -0.0092525193
960000000 0.039074633 -0.016459489 -0.34352797 -0.92069405 -0.34364751 -0.92080939 0.041726723 -0.009961308
970000000 0.038542077 -0.017240662 -0.3617962 -0.91350669 -0.36190793 -0.91360629 0.041451804 -0.010663676
980000000 0.038021889 -0.017995475 -0.37991193 -0.90597314 -0.38004375 -0.90608412 0.041205712 -0.01138431
990000000 0.03746406 -0.018701719 -0.39790887 -0.89809448 -0.39802751 -0.89821911 0.041002665 -0.012036269
1000000000 0.036922194 -0.019418061 -0.41568398 -0.88985586 -0.41583446 -0.88995165 0.040744372 -0.012701033
1010000000 0.036616571 -0.019930033 -0.43345505 -0.88144076 -0.43357104 -0.88145602 0.040452693 -0.013392663
1020000000 0.036041182 -0.020660877 -0.45089278 -0.87241292 -0.45103472 -0.87248266 0.040156387 -0.013993064
1030000000 0.03543872 -0.021400861 -0.46815738 -0.86311781 -0.4682751 -0.86310881 0.039832085 -0.014584063
1040000000 0.034842491 -0.022158392 -0.48519811 -0.85345477 -0.48535591 -0.85348195 0.039462101 -0.015088584
1050000000 0.03419821 -0.022870913 -0.50208741 -0.84348071 -0.50223666 -0.84346926 0.039111268 -0.015634233
1060000000 0.033574693 -0.023591686 -0.51873791 -0.83313781 -0.51890528 -0.83311898 0.038744371 -0.016122477
1070000000 0.032942571 -0.024252338 -0.53518087 -0.82246107 -0.53532648 -0.82244855 0.038362615 -0.016638907
1080000000 0.032333501 -0.024854183 -0.55142975 -0.81148636 -0.55155265 -0.8114816 0.037963584 -0.01716808
1090000000 0.03164297 -0.025428537 -0.56737965 -0.80018592 -0.56753802 -0.80019003 0.037531875 -0.017671354
1100000000 0.030950103 -0.025959829 -0.58318043 -0.78862476 -0.58331335 -0.78857422 0.037095509 -0.018133836
1110000000 0.030295644 -0.026400656 -0.59872383 -0.7766968 -0.5988636 -0.77668172 0.036615729 -0.01865099
1120000000 0.029597109 -0.02686012 -0.61402953 -0.76449645 -0.61414683 -0.76448596 0.036084685 -0.019135982
1130000000 0.028915061 -0.027201422 -0.62908494 -0.75200045 -0.62924987 -0.75201494 0.035522807 -0.019600026
1140000000 0.02817202 -0.027546156 -0.64388883 -0.73919898 -0.64400911 -0.73921007 0.034921717 -0.020027317
1150000000 0.027419539 -0.027798947 -0.6584307 -0.72611409 -0.6585499 -0.72610748 0.034360517 -0.020486642
1160000000 0.026619812 -0.028045969 -0.6726985 -0.71272701 -0.67282677 -0.71270728 0.033839617 -0.020905461
1170000000 0.025794495 -0.028288662 -0.68670952 -0.69904488 -0.68680632 -0.69902515 0.03324987 -0.021378882
1180000000 0.024970053 -0.028481901 -0.70044732 -0.68511504 -0.70053995 -0.68509203 0.032657418 -0.021863135
1190000000 0.024123758 -0.02861179 -0.71387774 -0.67087048 -0.71399963 -0.67088926 0.032022376 -0.022302222
1200000000 0.023260251 -0.028744597 -0.72701067 -0.65639365 -0.72715944 -0.65642756 0.031359006 -0.022620667
1210000000 0.022429537 -0.028918322 -0.73986638 -0.64170319 -0.73997128 -0.64168453 0.03069949 -0.022895131
1220000000 0.021642255 -0.029051995 -0.75242597 -0.6266982 -0.75251836 -0.62670052 0.030034052 -0.023186551
1230000000 0.020815644 -0.029157082 -0.76468617 -0.61147511 -0.76472443 -0.6114493 0.029370341 -0.023456482
1240000000 0.020024212 -0.02928945 -0.77661633 -0.59601247 -0.77665436 -0.59595269 0.028731141 -0.02373085
1250000000 0.019215098 -0.029391596 -0.78823274 -0.58029151 -0.78826129 -0.58025086 0.028119728 -0.023945024
1260000000 0.018390143 -0.029490244 -0.79950213 -0.56438613 -0.79958689 -0.56429607 0.027527044 -0.024121575
1270000000 0.017561801 -0.029547062 -0.81053501 -0.54825711 -0.81059295 -0.54817718 0.026936891 -0.024308998
1280000000 0.016740378 -0.029638831 -0.82119083 -0.53187656 -0.82130361 -0.53184104 0.026365196 -0.024425233
1290000000 0.01597956 -0.029647887 -0.83153313 -0.51530844 -0.83162552 -0.51526588 0.025704972 -0.024574384
1300000000 0.015197226 -0.029647456 -0.84152102 -0.49851468 -0.84161073 -0.49846154 0.025077656 -0.024676709
1310000000 0.014469003 -0.029598594 -0.85119987 -0.48153341 -0.85126227 -0.48149019 0.024459891 -0.024724873
1320000000 0.013774287 -0.029455846 -0.86050618 -0.46441793 -0.86056501 -0.46433985 0.023816325 -0.024760157
1330000000 0.012992322 -0.029340178 -0.86950809 -0.44711244 -0.8695333 -0.4470492 0.023237118 -0.024811953
1340000000 0.012270068 -0.029182335 -0.87815654 -0.42959994 -0.87816894 -0.42954576 0.022561077 -0.024855016
1350000000 0.011551826 -0.0289398 -0.88641262 -0.41193089 -0.88642985 -0.41185954 0.021879409 -0.024861716
1360000000 0.010850715 -0.028722985 -0.89431947 -0.39410385 -0.89434844 -0.39404216 0.021192383 -0.024813514
1370000000 0.010156361 -0.02843661 -0.90190613 -0.37615582 -0.90192389 -0.37607118 0.020571444 -0.024742121
1380000000 0.0094408989 -0.028184973 -0.90913296 -0.35801917 -0.90910888 -0.35794973 0.019968927 -0.024642039
1390000000 0.0087083327 -0.027873058 -0.91599184 -0.33975238 -0.91592908 -0.33967286 0.01934557 -0.024560502
1400000000 0.0080224313 -0.027507817 -0.92245156 -0.32136801 -0.92238379 -0.32129157 0.018695509 -0.024515303
1410000000 0.0072542559 -0.027136333 -0.92853379 -0.30285093 -0.9284789 -0.3027682 0.018073166 -0.024424054
1420000000 0.0065422943 -0.026714485 -0.93423325 -0.28424585 -0.9342398 -0.2841652 0.017440701 -0.024269095
1430000000 0.0058420384 -0.026295196 -0.9395628 -0.2654902 -0.93957692 -0.26545405 0.016912997 -0.024099361
1440000000 0.0050390633 -0.025860354 -0.94457638 -0.24666017 -0.94458896 -0.24661919 0.016412627 -0.023935528
1450000000 0.0043590311 -0.02540379 -0.94916517 -0.22773126 -0.94916034 -0.22763944 0.015921116 -0.023718616
1460000000 0.003769733 -0.024969619 -0.9533639 -0.20869243 -0.95335126 -0.20861635 0.015448508 -0.023497788
1470000000 0.003236087 -0.024546085 -0.95727158 -0.18960258 -0.95716864 -0.18950671 0.014960798 -0.023277048
1480000000 0.0026375272 -0.024117969 -0.96070844 -0.170454 -0.96063352 -0.1703112 0.014569278 -0.023039168
1490000000 0.0020734724 -0.023691097 -0.96374857 -0.1512191 -0.96370852 -0.15111667 0.014113434 -0.022762172
1500000000 0.0015163589 -0.023246281 -0.96646744 -0.13191997 -0.96643472 -0.1318353 0.01374447 -0.02250465
1510000000 0.0006839321 -0.022899661 -0.9685778 -0.11254527 -0.96868646 -0.11250904 0.013275512 -0.022251178
1520000000 0.00013919454 -0.022345811 -0.97046179 -0.093182325 -0.97061241 -0.093131304 0.012832514 -0.02197361
1530000000 -0.00027295621 -0.021814033 -0.97202218 -0.073796257 -0.9721151 -0.07373561 0.01234615 -0.021635702
1540000000 -0.00067101093 -0.021275263 -0.97318882 -0.054380134 -0.97321177 -0.054328248 0.011893587 -0.021296721
1550000000 -0.0010820152 -0.020719208 -0.97391617 -0.034949809 -0.97400409 -0.034884036 0.011498998 -0.020981984
1560000000 -0.0013897745 -0.020215062 -0.9742614 -0.015480027 -0.97435164 -0.015447959 0.011021144 -0.020654395
1570000000 -0.0016434472 -0.019657554 -0.97422874 0.0039612949 -0.97429699 0.0040080845 0.010549507 -0.020340193
1580000000 -0.0018560961 -0.019101003 -0.97383261 0.023379743 -0.9738614 0.023440152 0.0099652754 -0.019974263
1590000000 -0.0020708991 -0.018560821 -0.97303277 0.042783469 -0.9730435 0.042851076 0.0094803954 -0.019592319
1600000000 -0.0023094914 -0.018004898 -0.97181523 0.062204272 -0.97184527 0.062250942 0.0090852603 -0.019244546
1610000000 -0.0026030173 -0.01739797 -0.9702422 0.081575871 -0.97027421 0.081602395 0.0087560285 -0.018924695
1620000000 -0.0027729971 -0.016780134 -0.96828139 0.10091528 -0.96833706 0.10090175 0.008388496 -0.018600009
1630000000 -0.0029563443 -0.016110225 -0.96592855 0.12019655 -0.96601588 0.12019095 0.0080718435 -0.018306222
1640000000 -0.0031253346 -0.015484111 -0.96320993 0.13939989 -0.9632923 0.13942468 0.0077341381 -0.018001363
1650000000 -0.0033320044 -0.014851144 -0.96010095 0.15854532 -0.96018416 0.15859663 0.0074671172 -0.017655123
1660000000 -0.0035969769 -0.014233219 -0.95660132 0.17766109 -0.95674247 0.17772019 0.007255435 -0.017265067
1670000000 -0.003824556 -0.013651023 -0.95270199 0.19669124 -0.95291096 0.19674978 0.0071220538 -0.016888674
1680000000 -0.0039866129 -0.013077782 -0.94842571 0.21561554 -0.94866586 0.21569739 0.0069851158 -0.016506676
1690000000 -0.00411289 -0.012514561 -0.94381618 0.23444343 -0.94397515 0.23454013 0.006846997 -0.016129866
1700000000 -0.0042314148 -0.011990012 -0.9388755 0.25319391 -0.93897581 0.25327349 0.0067399307 -0.01571859
1710000000 -0.0043878811 -0.011405083 -0.93346649 0.27184576 -0.93357837 0.27190876 0.0066254335 -0.015357411
1720000000 -0.0045468807 -0.010789501 -0.92773044 0.29037845 -0.92787898 0.29044253 0.0065844595 -0.01499432
1730000000 -0.0046108719 -0.010170882 -0.92158669 0.30877119 -0.92178994 0.30884215 0.0065247049 -0.01462584
1740000000 -0.00459632 -0.0095281592 -0.91513491 0.32705271 -0.91533035 0.32714674 0.0064415364 -0.01425685
1750000000 -0.0045402492 -0.0089393677 -0.90829444 0.3451587 -0.90848887 0.34530026 0.0063534523 -0.013853148
1760000000 -0.0044850977 -0.008380021 -0.9011417 0.36318809 -0.90125304 0.36329764 0.0062887641 -0.013480303
1770000000 -0.0043562776 -0.007868344 -0.89356291 0.38103527 -0.89367449 0.38116199 0.0061835181 -0.013135407
1780000000 -0.0042296015 -0.0073259408 -0.88561743 0.39870831 -0.88576233 0.39883217 0.0061466321 -0.012771037
1790000000 -0.0040624342 -0.0068275561 -0.87734962 0.41624886 -0.87750959 0.41636214 0.0060742055 -0.012458888
1800000000 -0.0039000858 -0.0062756878 -0.8687405 0.43357101 -0.86887562 0.43368453 0.005940353 -0.012090712
1810000000 -0.0037191247 -0.0057301279 -0.85980976 0.45075756 -0.85991585 0.45084423 0.0058568609 -0.011705242
1820000000 -0.0035274883 -0.0051776879 -0.85049742 0.46775645 -0.85063541 0.46783298 0.0058471733 -0.011337662
1830000000 -0.0033333208 -0.0046281205 -0.84086794 0.48453331 -0.8410089 0.48461336 0.0058414009 -0.010943784
1840000000 -0.0031224058 -0.004107588 -0.83093399 0.50117004 -0.83105224 0.50122321 0.0058801118 -0.010596928
